
SetupTitle, I/V Sweep
PrimitiveTest, I/V Sweep
TestParameter, Context.MainFrame, B1500A
TestParameter, Channel.UnitType, SMU, SMU, SMU
TestParameter, Channel.Unit, SMU2:HR, SMU3:HR, SMU4:HR
TestParameter, Channel.IName, I2, I3, I4
TestParameter, Channel.VName, V2, V3, V4
TestParameter, Channel.Mode, V, COMMON, V
TestParameter, Channel.Func, CONST, CONST, VAR1
TestParameter, Channel.Index, 
TestParameter, Channel.Time, 
TestParameter, Measurement.Port.Unit, SMU2:HR, SMU3:HR, SMU4:HR
TestParameter, Measurement.Port.SeriesResistor, NONE, NONE, NONE
TestParameter, Measurement.Port.Filter, ON, ON, ON
TestParameter, Measurement.Port.OutputVoltageComparison, 0, 0, 0
TestParameter, Measurement.Primary.Locus, Double
TestParameter, Measurement.Primary.Scale, LINEAR
TestParameter, Measurement.Primary.Start, -3
TestParameter, Measurement.Primary.Stop, 3
TestParameter, Measurement.Primary.Step, 0.015
TestParameter, Measurement.Primary.Compliance, 0.1
TestParameter, Measurement.Primary.PowerCompliance, 0
TestParameter, Measurement.Aborting.Condition, CONTINUE AT ANY
TestParameter, Measurement.PostOutput.Value, START
TestParameter, Measurement.PostOutput.Retention, OFF
TestParameter, Measurement.Bias.Source, -2, 0, -3
TestParameter, Measurement.Bias.Compliance, 0.1, 0.1, 0.1
TestParameter, Measurement.Monitor.Unit, SMU2:HR, SMU3:HR, SMU4:HR
TestParameter, Measurement.Monitor.Adc, HR ADC, HR ADC, HR ADC
TestParameter, Measurement.Monitor.Measurement, Compliance Side, Compliance Side, Compliance Side
TestParameter, Measurement.Monitor.RangingMode, LIMITED, LIMITED, LIMITED
TestParameter, Measurement.Monitor.RangeBoundary, 1nA, 1nA, 1nA
TestParameter, Measurement.Monitor.RangeRating, BY FULL RANGE, BY FULL RANGE, BY FULL RANGE
TestParameter, Measurement.Monitor.RangeRatingCoeff, 50, 50, 50
TestParameter, Measurement.Timing.Hold, 0
TestParameter, Measurement.Timing.Delay, 0
TestParameter, Measurement.Adc.HighSpeed.Mode, AUTO
TestParameter, Measurement.Adc.HighSpeed.Coeff, 1
TestParameter, Measurement.Adc.HighResolution.AutoZero, OFF
TestParameter, Measurement.Adc.HighResolution.Mode, AUTO
TestParameter, Measurement.Adc.HighResolution.Coeff, 6
TestParameter, Measurement.WaitTime.Source.Coeff, 1
TestParameter, Measurement.WaitTime.Source.Offset, 0
TestParameter, Measurement.WaitTime.Monitor.Coeff, 1
TestParameter, Measurement.WaitTime.Monitor.Offset, 0
TestParameter, Output.Graph.Enabled, true
TestParameter, Output.Graph.AutoScaling, false
TestParameter, Output.Graph.XAxis.Data, V4
TestParameter, Output.Graph.XAxis.Scale, Linear
TestParameter, Output.Graph.XAxis.Left, -3
TestParameter, Output.Graph.XAxis.Right, 3
TestParameter, Output.Graph.XAxis.RunTimeAutoScale, false
TestParameter, Output.Graph.YAxis.Data, I3
TestParameter, Output.Graph.YAxis.Scale, Log
TestParameter, Output.Graph.YAxis.Bottom, 0.001
TestParameter, Output.Graph.YAxis.Top, 0.01
TestParameter, Output.Graph.YAxis.Group, 
TestParameter, Output.Graph.YAxis.RunTimeAutoScale, true
TestParameter, AutoAnalysis.Interpolation, false
TestParameter, AutoAnalysis.Var2StepCount, 1
TestParameter, AutoAnalysis.Var2StepScript, 
TestParameter, AutoAnalysis.Line1.Enabled, false
TestParameter, AutoAnalysis.Line1.Type, 1
TestParameter, AutoAnalysis.Line1.Fix, True
TestParameter, AutoAnalysis.Line1.YAxis, 0
TestParameter, AutoAnalysis.Line1.Point1.Type, 0
TestParameter, AutoAnalysis.Line1.Point1.XY.X, 
TestParameter, AutoAnalysis.Line1.Point1.XY.Y, 
TestParameter, AutoAnalysis.Line1.Point1.Data.Var, 
TestParameter, AutoAnalysis.Line1.Point1.Data.Condition, 
TestParameter, AutoAnalysis.Line1.Point1.Data.Start, false
TestParameter, AutoAnalysis.Line1.Point1.Data.StartVar, 
TestParameter, AutoAnalysis.Line1.Point1.Data.StartCondition, 
TestParameter, AutoAnalysis.Line1.Point2.Type, 0
TestParameter, AutoAnalysis.Line1.Point2.XY.X, 
TestParameter, AutoAnalysis.Line1.Point2.XY.Y, 
TestParameter, AutoAnalysis.Line1.Point2.Data.Var, 
TestParameter, AutoAnalysis.Line1.Point2.Data.Condition, 
TestParameter, AutoAnalysis.Line1.Point2.Data.Start, false
TestParameter, AutoAnalysis.Line1.Point2.Data.StartVar, 
TestParameter, AutoAnalysis.Line1.Point2.Data.StartCondition, 
TestParameter, AutoAnalysis.Line1.GradientExpr, 0
TestParameter, AutoAnalysis.Line2.Enabled, false
TestParameter, AutoAnalysis.Line2.Type, 1
TestParameter, AutoAnalysis.Line2.Fix, True
TestParameter, AutoAnalysis.Line2.YAxis, 0
TestParameter, AutoAnalysis.Line2.Point1.Type, 0
TestParameter, AutoAnalysis.Line2.Point1.XY.X, 
TestParameter, AutoAnalysis.Line2.Point1.XY.Y, 
TestParameter, AutoAnalysis.Line2.Point1.Data.Var, 
TestParameter, AutoAnalysis.Line2.Point1.Data.Condition, 
TestParameter, AutoAnalysis.Line2.Point1.Data.Start, false
TestParameter, AutoAnalysis.Line2.Point1.Data.StartVar, 
TestParameter, AutoAnalysis.Line2.Point1.Data.StartCondition, 
TestParameter, AutoAnalysis.Line2.Point2.Type, 0
TestParameter, AutoAnalysis.Line2.Point2.XY.X, 
TestParameter, AutoAnalysis.Line2.Point2.XY.Y, 
TestParameter, AutoAnalysis.Line2.Point2.Data.Var, 
TestParameter, AutoAnalysis.Line2.Point2.Data.Condition, 
TestParameter, AutoAnalysis.Line2.Point2.Data.Start, false
TestParameter, AutoAnalysis.Line2.Point2.Data.StartVar, 
TestParameter, AutoAnalysis.Line2.Point2.Data.StartCondition, 
TestParameter, AutoAnalysis.Line2.GradientExpr, 0
TestParameter, AutoAnalysis.Marker.Enabled, false
TestParameter, AutoAnalysis.Marker.Data.Var, 
TestParameter, AutoAnalysis.Marker.Data.Condition, 
TestParameter, AutoAnalysis.Marker.Data.Start, false
TestParameter, AutoAnalysis.Marker.Data.StartVar, 
TestParameter, AutoAnalysis.Marker.Data.StartCondition, 
MetaData, TestRecord.EntryPoint, true
MetaData, TestRecord.RecordTime, 04/29/2024 04:55:28
MetaData, TestRecord.TestTarget, 
MetaData, TestRecord.IterationIndex, 134
MetaData, TestRecord.Preservation, true
MetaData, TestRecord.Flag, 
MetaData, TestRecord.Remarks, 
MetaData, TestRecord.LinkKey, 5752c81a-7bd5-4e2e-8eeb-092a47230e04
MetaData, TestRecord.Parameters, 
Dimension1, 802, 802
Dimension2, 1, 1
DataName, V4, I3
DataValue, -3, 2.1828E-08
DataValue, -2.985, 1.36968E-08
DataValue, -2.97, 1.51796E-08
DataValue, -2.955, 1.2633599999999999E-08
DataValue, -2.94, 1.08112E-08
DataValue, -2.9250000000000003, 8.444E-09
DataValue, -2.91, 3.8716E-09
DataValue, -2.895, 3.4941E-09
DataValue, -2.88, 4.1794E-09
DataValue, -2.865, 4.6141E-09
DataValue, -2.85, 1.8765E-09
DataValue, -2.835, 5.0484E-09
DataValue, -2.82, 2.6653E-09
DataValue, -2.805, 3.6441E-09
DataValue, -2.79, 2.9863E-09
DataValue, -2.775, 1.1051E-09
DataValue, -2.7600000000000002, 2.3427E-09
DataValue, -2.745, 1.4604E-09
DataValue, -2.73, -8.424E-10
DataValue, -2.715, 3.2939E-09
DataValue, -2.7, -1.6035E-09
DataValue, -2.685, 2.6123E-09
DataValue, -2.67, -1.5972E-09
DataValue, -2.6550000000000002, 1.9058E-09
DataValue, -2.64, -1.7545E-09
DataValue, -2.625, 1.6408E-09
DataValue, -2.61, 1.1568E-09
DataValue, -2.595, -1.2648E-09
DataValue, -2.58, 2.6343E-09
DataValue, -2.565, -1.9476E-09
DataValue, -2.5500000000000003, 1.6759E-09
DataValue, -2.535, -2.073E-10
DataValue, -2.52, -1.2121E-09
DataValue, -2.505, 2.5113E-09
DataValue, -2.49, -2.049E-09
DataValue, -2.475, 1.7534E-09
DataValue, -2.46, -1.7566E-09
DataValue, -2.445, 2.02E-09
DataValue, -2.43, -1.9895E-09
DataValue, -2.415, 1.6315E-09
DataValue, -2.4, -2.315E-10
DataValue, -2.3850000000000002, -1.3558E-09
DataValue, -2.37, 2.4576E-09
DataValue, -2.355, -2.1566E-09
DataValue, -2.34, 2.1479E-09
DataValue, -2.325, -1.9331E-09
DataValue, -2.31, 1.6906E-09
DataValue, -2.295, 4.2E-12
DataValue, -2.2800000000000002, -1.4956E-09
DataValue, -2.265, 2.7849E-09
DataValue, -2.25, -1.5753E-09
DataValue, -2.235, 1.7218E-09
DataValue, -2.22, 4.631E-10
DataValue, -2.205, -9.526E-10
DataValue, -2.19, 3.2949E-09
DataValue, -2.1750000000000003, -1.4666E-09
DataValue, -2.16, 3.1499E-09
DataValue, -2.145, -1.072E-09
DataValue, -2.13, 3.6477E-09
DataValue, -2.115, 2.9253E-09
DataValue, -2.1, 1.8617E-09
DataValue, -2.085, 3.3685E-09
DataValue, -2.07, 2.434E-09
DataValue, -2.055, 2.7787E-09
DataValue, -2.04, 5.588E-09
DataValue, -2.025, 1.9772E-09
DataValue, -2.0100000000000002, 6.5589E-09
DataValue, -1.995, 3.8918E-09
DataValue, -1.98, 5.5344E-09
DataValue, -1.965, 7.879E-09
DataValue, -1.95, 4.8589E-09
DataValue, -1.935, 1.01968E-08
DataValue, -1.92, 7.8403E-09
DataValue, -1.905, 1.07226E-08
DataValue, -1.8900000000000001, 1.2771999999999999E-08
DataValue, -1.875, 9.7307999999999987E-09
DataValue, -1.86, 1.60332E-08
DataValue, -1.845, 1.2500599999999999E-08
DataValue, -1.83, 1.7854E-08
DataValue, -1.815, 1.6773199999999998E-08
DataValue, -1.8, 1.9602199999999997E-08
DataValue, -1.7850000000000001, 2.1880399999999997E-08
DataValue, -1.77, 2.21692E-08
DataValue, -1.7550000000000001, 2.8584799999999997E-08
DataValue, -1.74, 2.7040399999999998E-08
DataValue, -1.725, 3.29376E-08
DataValue, -1.71, 2.9426399999999997E-08
DataValue, -1.695, 3.6890999999999996E-08
DataValue, -1.68, 3.4861199999999995E-08
DataValue, -1.665, 4.0529E-08
DataValue, -1.6500000000000001, 4.0416599999999995E-08
DataValue, -1.635, 4.5962399999999993E-08
DataValue, -1.62, 5.0012399999999993E-08
DataValue, -1.605, 5.4692E-08
DataValue, -1.59, 6.3055999999999992E-08
DataValue, -1.575, 6.5079E-08
DataValue, -1.56, 7.44292E-08
DataValue, -1.545, 7.60708E-08
DataValue, -1.53, 8.61078E-08
DataValue, -1.5150000000000001, 9.2944199999999986E-08
DataValue, -1.5, 1.0242059999999999E-07
DataValue, -1.485, 1.0452E-07
DataValue, -1.47, 1.0936E-07
DataValue, -1.455, 1.2612E-07
DataValue, -1.44, 1.3256E-07
DataValue, -1.425, 1.347E-07
DataValue, -1.41, 1.5438E-07
DataValue, -1.395, 1.5988E-07
DataValue, -1.3800000000000001, 1.6735999999999999E-07
DataValue, -1.365, 1.9204E-07
DataValue, -1.35, 2.0788E-07
DataValue, -1.335, 2.0398E-07
DataValue, -1.32, 2.2854E-07
DataValue, -1.305, 2.5572E-07
DataValue, -1.29, 2.8666E-07
DataValue, -1.2750000000000001, 3.0044E-07
DataValue, -1.26, 3.4152E-07
DataValue, -1.245, 3.4942E-07
DataValue, -1.23, 3.7799999999999997E-07
DataValue, -1.215, 4.0182E-07
DataValue, -1.2, 4.3644E-07
DataValue, -1.185, 5.1002E-07
DataValue, -1.17, 5.3896E-07
DataValue, -1.155, 5.7044E-07
DataValue, -1.1400000000000001, 6.0196E-07
DataValue, -1.125, 6.505E-07
DataValue, -1.11, 6.7468E-07
DataValue, -1.095, 7.6746E-07
DataValue, -1.08, 7.9044E-07
DataValue, -1.065, 8.5357999999999994E-07
DataValue, -1.05, 8.6823999999999994E-07
DataValue, -1.035, 9.8601999999999988E-07
DataValue, -1.02, 9.8856E-07
DataValue, -1.0050000000000001, 1.04894E-06
DataValue, -0.99, 1.1013000000000002E-06
DataValue, -0.975, 1.1920000000000002E-06
DataValue, -0.96, 1.2832E-06
DataValue, -0.94500000000000006, 1.3499000000000002E-06
DataValue, -0.93, 1.4627000000000002E-06
DataValue, -0.915, 1.5331000000000002E-06
DataValue, -0.9, 1.6357E-06
DataValue, -0.885, 1.7669000000000002E-06
DataValue, -0.87, 1.8575000000000002E-06
DataValue, -0.855, 1.9951E-06
DataValue, -0.84, 2.1791E-06
DataValue, -0.82500000000000007, 2.2692000000000002E-06
DataValue, -0.81, 2.3933000000000004E-06
DataValue, -0.795, 2.6537E-06
DataValue, -0.78, 2.6733000000000003E-06
DataValue, -0.765, 2.9512000000000002E-06
DataValue, -0.75, 3.1061000000000002E-06
DataValue, -0.735, 3.3817E-06
DataValue, -0.72, 3.5153000000000005E-06
DataValue, -0.705, 3.7914000000000002E-06
DataValue, -0.69000000000000006, 4.0884000000000005E-06
DataValue, -0.675, 4.3409E-06
DataValue, -0.66, 4.5403E-06
DataValue, -0.645, 4.8483000000000007E-06
DataValue, -0.63, 5.1818000000000009E-06
DataValue, -0.615, 5.4245E-06
DataValue, -0.6, 5.7296E-06
DataValue, -0.585, 5.9698000000000008E-06
DataValue, -0.57000000000000006, 6.2522000000000009E-06
DataValue, -0.555, 6.4694E-06
DataValue, -0.54, 6.9084000000000006E-06
DataValue, -0.525, 7.3326000000000007E-06
DataValue, -0.51, 7.608900000000001E-06
DataValue, -0.495, 8.1974E-06
DataValue, -0.48, 8.5035E-06
DataValue, -0.465, 8.8769000000000014E-06
DataValue, -0.45, 9.3059E-06
DataValue, -0.435, 9.7255E-06
DataValue, -0.42, 1.02766E-05
DataValue, -0.405, 1.05337E-05
DataValue, -0.39, 1.1242500000000001E-05
DataValue, -0.375, 1.1248E-05
DataValue, -0.36, 1.182E-05
DataValue, -0.34500000000000003, 1.2284E-05
DataValue, -0.33, 1.2782E-05
DataValue, -0.315, 1.3226E-05
DataValue, -0.3, 1.3880000000000001E-05
DataValue, -0.28500000000000003, 1.4822E-05
DataValue, -0.27, 1.5068E-05
DataValue, -0.255, 1.5702E-05
DataValue, -0.24, 1.643E-05
DataValue, -0.225, 1.7024E-05
DataValue, -0.21, 1.7554E-05
DataValue, -0.195, 1.8376E-05
DataValue, -0.18, 1.8734E-05
DataValue, -0.165, 1.9564E-05
DataValue, -0.15, 1.9452E-05
DataValue, -0.135, 2.0518000000000002E-05
DataValue, -0.12, 2.1136000000000002E-05
DataValue, -0.105, 2.2146E-05
DataValue, -0.09, 2.2822E-05
DataValue, -0.075, 2.3154000000000002E-05
DataValue, -0.06, 2.4098000000000002E-05
DataValue, -0.045, 2.4624E-05
DataValue, -0.03, 2.5584E-05
DataValue, -0.015, 2.6340000000000002E-05
DataValue, 0, 2.7392E-05
DataValue, 0.015, 2.7844E-05
DataValue, 0.03, 2.8570000000000003E-05
DataValue, 0.045, 2.9384000000000002E-05
DataValue, 0.06, 3.0708E-05
DataValue, 0.075, 3.1404E-05
DataValue, 0.09, 3.1874E-05
DataValue, 0.105, 3.2334E-05
DataValue, 0.12, 3.3594000000000004E-05
DataValue, 0.135, 3.3392E-05
DataValue, 0.15, 3.4498E-05
DataValue, 0.165, 3.5068000000000004E-05
DataValue, 0.18, 3.6262E-05
DataValue, 0.195, 3.6678000000000004E-05
DataValue, 0.21, 3.7444E-05
DataValue, 0.225, 3.8314E-05
DataValue, 0.24, 3.9562E-05
DataValue, 0.255, 4.0586E-05
DataValue, 0.27, 4.1178000000000005E-05
DataValue, 0.28500000000000003, 4.1646E-05
DataValue, 0.3, 4.29E-05
DataValue, 0.315, 4.393E-05
DataValue, 0.33, 4.4528000000000005E-05
DataValue, 0.34500000000000003, 4.5416E-05
DataValue, 0.36, 4.6490000000000004E-05
DataValue, 0.375, 4.6886000000000005E-05
DataValue, 0.39, 4.8106E-05
DataValue, 0.405, 4.8894E-05
DataValue, 0.42, 4.939E-05
DataValue, 0.435, 5.0770000000000003E-05
DataValue, 0.45, 5.1602000000000005E-05
DataValue, 0.465, 5.212E-05
DataValue, 0.48, 5.3048000000000004E-05
DataValue, 0.495, 5.3666000000000004E-05
DataValue, 0.51, 5.5162000000000005E-05
DataValue, 0.525, 5.5186E-05
DataValue, 0.54, 5.6992E-05
DataValue, 0.555, 5.8242E-05
DataValue, 0.57000000000000006, 5.8218000000000004E-05
DataValue, 0.585, 5.9702000000000005E-05
DataValue, 0.6, 6.0214E-05
DataValue, 0.615, 6.1118E-05
DataValue, 0.63, 6.2462E-05
DataValue, 0.645, 6.283E-05
DataValue, 0.66, 6.4062E-05
DataValue, 0.675, 6.4872E-05
DataValue, 0.69000000000000006, 6.6598E-05
DataValue, 0.705, 6.6906E-05
DataValue, 0.72, 6.7670000000000008E-05
DataValue, 0.735, 6.8398E-05
DataValue, 0.75, 6.874E-05
DataValue, 0.765, 6.9652E-05
DataValue, 0.78, 7.0802E-05
DataValue, 0.795, 7.1318E-05
DataValue, 0.81, 7.2272E-05
DataValue, 0.82500000000000007, 7.3422E-05
DataValue, 0.84, 7.4476E-05
DataValue, 0.855, 7.511E-05
DataValue, 0.87, 7.5772E-05
DataValue, 0.885, 7.752E-05
DataValue, 0.9, 7.8242E-05
DataValue, 0.915, 7.9184E-05
DataValue, 0.93, 8.0138E-05
DataValue, 0.94500000000000006, 8.0646E-05
DataValue, 0.96, 8.2162E-05
DataValue, 0.975, 8.2294000000000009E-05
DataValue, 0.99, 8.3618E-05
DataValue, 1.0050000000000001, 8.439E-05
DataValue, 1.02, 8.5310000000000008E-05
DataValue, 1.035, 8.6458E-05
DataValue, 1.05, 8.7008E-05
DataValue, 1.065, 8.801E-05
DataValue, 1.08, 8.9074000000000008E-05
DataValue, 1.095, 8.9422E-05
DataValue, 1.11, 9.0876E-05
DataValue, 1.125, 9.1186E-05
DataValue, 1.1400000000000001, 9.174E-05
DataValue, 1.155, 9.2666E-05
DataValue, 1.17, 9.3274E-05
DataValue, 1.185, 9.5054E-05
DataValue, 1.2, 9.595400000000001E-05
DataValue, 1.215, 9.6906E-05
DataValue, 1.23, 9.8072E-05
DataValue, 1.245, 9.8014E-05
DataValue, 1.26, 9.9062000000000008E-05
DataValue, 1.2750000000000001, 9.9696E-05
DataValue, 1.29, 0.000100588
DataValue, 1.305, 0.00010164000000000001
DataValue, 1.32, 0.000102478
DataValue, 1.335, 0.000103026
DataValue, 1.35, 0.000104218
DataValue, 1.365, 0.000105352
DataValue, 1.3800000000000001, 0.00010499600000000001
DataValue, 1.395, 0.000106018
DataValue, 1.41, 0.00010745000000000001
DataValue, 1.425, 0.000107422
DataValue, 1.44, 0.000108152
DataValue, 1.455, 0.000108706
DataValue, 1.47, 0.000109908
DataValue, 1.485, 0.00011046000000000001
DataValue, 1.5, 0.000111674
DataValue, 1.5150000000000001, 0.00011190600000000001
DataValue, 1.53, 0.00011289400000000001
DataValue, 1.545, 0.00011394000000000001
DataValue, 1.56, 0.00011124000000000001
DataValue, 1.575, 0.00011240000000000001
DataValue, 1.59, 0.00011338
DataValue, 1.605, 0.00011438000000000001
DataValue, 1.62, 0.0001144
DataValue, 1.635, 0.00011522000000000001
DataValue, 1.6500000000000001, 0.00011616000000000001
DataValue, 1.665, 0.00011650000000000001
DataValue, 1.68, 0.00011766000000000001
DataValue, 1.695, 0.00011832
DataValue, 1.71, 0.00011938000000000001
DataValue, 1.725, 0.00012028000000000001
DataValue, 1.74, 0.00012062000000000001
DataValue, 1.7550000000000001, 0.00012126
DataValue, 1.77, 0.00012206000000000001
DataValue, 1.7850000000000001, 0.00012272000000000002
DataValue, 1.8, 0.00012382000000000002
DataValue, 1.815, 0.00012528000000000002
DataValue, 1.83, 0.00012514
DataValue, 1.845, 0.00012644000000000002
DataValue, 1.86, 0.00012694
DataValue, 1.875, 0.00012824
DataValue, 1.8900000000000001, 0.00012852
DataValue, 1.905, 0.00012924
DataValue, 1.92, 0.00012964
DataValue, 1.935, 0.00013006
DataValue, 1.95, 0.00013136000000000002
DataValue, 1.965, 0.00013230000000000002
DataValue, 1.98, 0.00013162000000000002
DataValue, 1.995, 0.0001329
DataValue, 2.0100000000000002, 0.000133
DataValue, 2.025, 0.00013352
DataValue, 2.04, 0.00013358
DataValue, 2.055, 0.00013446
DataValue, 2.07, 0.00013544000000000002
DataValue, 2.085, 0.00013634
DataValue, 2.1, 0.00013616
DataValue, 2.115, 0.00013794
DataValue, 2.13, 0.00013890000000000002
DataValue, 2.145, 0.00013932000000000002
DataValue, 2.16, 0.00013926000000000002
DataValue, 2.1750000000000003, 0.00013958000000000002
DataValue, 2.19, 0.00014026000000000002
DataValue, 2.205, 0.00014124
DataValue, 2.22, 0.00014084000000000001
DataValue, 2.235, 0.0001416
DataValue, 2.25, 0.00014256000000000002
DataValue, 2.265, 0.00014326
DataValue, 2.2800000000000002, 0.00014344
DataValue, 2.295, 0.00014458
DataValue, 2.31, 0.00014562
DataValue, 2.325, 0.00014554000000000002
DataValue, 2.34, 0.0001462
DataValue, 2.355, 0.00014784000000000002
DataValue, 2.37, 0.00014764000000000002
DataValue, 2.3850000000000002, 0.0001475
DataValue, 2.4, 0.00014810000000000002
DataValue, 2.415, 0.00014898
DataValue, 2.43, 0.00014948
DataValue, 2.445, 0.00014994000000000002
DataValue, 2.46, 0.0001497
DataValue, 2.475, 0.00015104000000000002
DataValue, 2.49, 0.00015146000000000002
DataValue, 2.505, 0.00015088000000000002
DataValue, 2.52, 0.00015138
DataValue, 2.535, 0.00015274
DataValue, 2.5500000000000003, 0.00015292000000000002
DataValue, 2.565, 0.00015352
DataValue, 2.58, 0.00015358
DataValue, 2.595, 0.00015344000000000002
DataValue, 2.61, 0.00015348
DataValue, 2.625, 0.00015452
DataValue, 2.64, 0.00015478
DataValue, 2.6550000000000002, 0.00015514
DataValue, 2.67, 0.00015604
DataValue, 2.685, 0.00015654000000000002
DataValue, 2.7, 0.00015672
DataValue, 2.715, 0.00015684000000000002
DataValue, 2.73, 0.0001575
DataValue, 2.745, 0.00015662
DataValue, 2.7600000000000002, 0.00015714
DataValue, 2.775, 0.00015690000000000002
DataValue, 2.79, 0.00015734
DataValue, 2.805, 0.00015746
DataValue, 2.82, 0.00015844
DataValue, 2.835, 0.00015844
DataValue, 2.85, 0.00015928
DataValue, 2.865, 0.00015976
DataValue, 2.88, 0.00016016
DataValue, 2.895, 0.00016120000000000002
DataValue, 2.91, 0.00016122
DataValue, 2.9250000000000003, 0.00016152
DataValue, 2.94, 0.0001628
DataValue, 2.955, 0.00016262
DataValue, 2.97, 0.00016298000000000002
DataValue, 2.985, 0.00016278
DataValue, 3, 0.00016312
DataValue, 3, 0.00016284
DataValue, 2.985, 0.00016036000000000002
DataValue, 2.97, 0.00015922
DataValue, 2.955, 0.0001577
DataValue, 2.94, 0.0001566
DataValue, 2.9250000000000003, 0.00015546
DataValue, 2.91, 0.00015388
DataValue, 2.895, 0.00015218
