
SetupTitle, I/V Sweep
PrimitiveTest, I/V Sweep
TestParameter, Context.MainFrame, B1500A
TestParameter, Channel.UnitType, SMU, SMU, SMU
TestParameter, Channel.Unit, SMU2:HR, SMU3:HR, SMU4:HR
TestParameter, Channel.IName, I2, I3, I4
TestParameter, Channel.VName, V2, V3, V4
TestParameter, Channel.Mode, V, COMMON, V
TestParameter, Channel.Func, CONST, CONST, VAR1
TestParameter, Channel.Index, 
TestParameter, Channel.Time, 
TestParameter, Measurement.Port.Unit, SMU2:HR, SMU3:HR, SMU4:HR
TestParameter, Measurement.Port.SeriesResistor, NONE, NONE, NONE
TestParameter, Measurement.Port.Filter, ON, ON, ON
TestParameter, Measurement.Port.OutputVoltageComparison, 0, 0, 0
TestParameter, Measurement.Primary.Locus, Double
TestParameter, Measurement.Primary.Scale, LINEAR
TestParameter, Measurement.Primary.Start, -3
TestParameter, Measurement.Primary.Stop, 3
TestParameter, Measurement.Primary.Step, 0.015
TestParameter, Measurement.Primary.Compliance, 0.1
TestParameter, Measurement.Primary.PowerCompliance, 0
TestParameter, Measurement.Aborting.Condition, CONTINUE AT ANY
TestParameter, Measurement.PostOutput.Value, START
TestParameter, Measurement.PostOutput.Retention, OFF
TestParameter, Measurement.Bias.Source, -2, 0, -3
TestParameter, Measurement.Bias.Compliance, 0.1, 0.1, 0.1
TestParameter, Measurement.Monitor.Unit, SMU2:HR, SMU3:HR, SMU4:HR
TestParameter, Measurement.Monitor.Adc, HR ADC, HR ADC, HR ADC
TestParameter, Measurement.Monitor.Measurement, Compliance Side, Compliance Side, Compliance Side
TestParameter, Measurement.Monitor.RangingMode, LIMITED, LIMITED, LIMITED
TestParameter, Measurement.Monitor.RangeBoundary, 1nA, 1nA, 1nA
TestParameter, Measurement.Monitor.RangeRating, BY FULL RANGE, BY FULL RANGE, BY FULL RANGE
TestParameter, Measurement.Monitor.RangeRatingCoeff, 50, 50, 50
TestParameter, Measurement.Timing.Hold, 0
TestParameter, Measurement.Timing.Delay, 0.001
TestParameter, Measurement.Adc.HighSpeed.Mode, AUTO
TestParameter, Measurement.Adc.HighSpeed.Coeff, 1
TestParameter, Measurement.Adc.HighResolution.AutoZero, OFF
TestParameter, Measurement.Adc.HighResolution.Mode, AUTO
TestParameter, Measurement.Adc.HighResolution.Coeff, 6
TestParameter, Measurement.WaitTime.Source.Coeff, 1
TestParameter, Measurement.WaitTime.Source.Offset, 0
TestParameter, Measurement.WaitTime.Monitor.Coeff, 1
TestParameter, Measurement.WaitTime.Monitor.Offset, 0
TestParameter, Output.Graph.Enabled, true
TestParameter, Output.Graph.AutoScaling, false
TestParameter, Output.Graph.XAxis.Data, V4
TestParameter, Output.Graph.XAxis.Scale, Linear
TestParameter, Output.Graph.XAxis.Left, -3
TestParameter, Output.Graph.XAxis.Right, 3
TestParameter, Output.Graph.XAxis.RunTimeAutoScale, false
TestParameter, Output.Graph.YAxis.Data, I3
TestParameter, Output.Graph.YAxis.Scale, Log
TestParameter, Output.Graph.YAxis.Bottom, 0.001
TestParameter, Output.Graph.YAxis.Top, 0.01
TestParameter, Output.Graph.YAxis.Group, 
TestParameter, Output.Graph.YAxis.RunTimeAutoScale, true
TestParameter, AutoAnalysis.Interpolation, false
TestParameter, AutoAnalysis.Var2StepCount, 1
TestParameter, AutoAnalysis.Var2StepScript, 
TestParameter, AutoAnalysis.Line1.Enabled, false
TestParameter, AutoAnalysis.Line1.Type, 1
TestParameter, AutoAnalysis.Line1.Fix, True
TestParameter, AutoAnalysis.Line1.YAxis, 0
TestParameter, AutoAnalysis.Line1.Point1.Type, 0
TestParameter, AutoAnalysis.Line1.Point1.XY.X, 
TestParameter, AutoAnalysis.Line1.Point1.XY.Y, 
TestParameter, AutoAnalysis.Line1.Point1.Data.Var, 
TestParameter, AutoAnalysis.Line1.Point1.Data.Condition, 
TestParameter, AutoAnalysis.Line1.Point1.Data.Start, false
TestParameter, AutoAnalysis.Line1.Point1.Data.StartVar, 
TestParameter, AutoAnalysis.Line1.Point1.Data.StartCondition, 
TestParameter, AutoAnalysis.Line1.Point2.Type, 0
TestParameter, AutoAnalysis.Line1.Point2.XY.X, 
TestParameter, AutoAnalysis.Line1.Point2.XY.Y, 
TestParameter, AutoAnalysis.Line1.Point2.Data.Var, 
TestParameter, AutoAnalysis.Line1.Point2.Data.Condition, 
TestParameter, AutoAnalysis.Line1.Point2.Data.Start, false
TestParameter, AutoAnalysis.Line1.Point2.Data.StartVar, 
TestParameter, AutoAnalysis.Line1.Point2.Data.StartCondition, 
TestParameter, AutoAnalysis.Line1.GradientExpr, 0
TestParameter, AutoAnalysis.Line2.Enabled, false
TestParameter, AutoAnalysis.Line2.Type, 1
TestParameter, AutoAnalysis.Line2.Fix, True
TestParameter, AutoAnalysis.Line2.YAxis, 0
TestParameter, AutoAnalysis.Line2.Point1.Type, 0
TestParameter, AutoAnalysis.Line2.Point1.XY.X, 
TestParameter, AutoAnalysis.Line2.Point1.XY.Y, 
TestParameter, AutoAnalysis.Line2.Point1.Data.Var, 
TestParameter, AutoAnalysis.Line2.Point1.Data.Condition, 
TestParameter, AutoAnalysis.Line2.Point1.Data.Start, false
TestParameter, AutoAnalysis.Line2.Point1.Data.StartVar, 
TestParameter, AutoAnalysis.Line2.Point1.Data.StartCondition, 
TestParameter, AutoAnalysis.Line2.Point2.Type, 0
TestParameter, AutoAnalysis.Line2.Point2.XY.X, 
TestParameter, AutoAnalysis.Line2.Point2.XY.Y, 
TestParameter, AutoAnalysis.Line2.Point2.Data.Var, 
TestParameter, AutoAnalysis.Line2.Point2.Data.Condition, 
TestParameter, AutoAnalysis.Line2.Point2.Data.Start, false
TestParameter, AutoAnalysis.Line2.Point2.Data.StartVar, 
TestParameter, AutoAnalysis.Line2.Point2.Data.StartCondition, 
TestParameter, AutoAnalysis.Line2.GradientExpr, 0
TestParameter, AutoAnalysis.Marker.Enabled, false
TestParameter, AutoAnalysis.Marker.Data.Var, 
TestParameter, AutoAnalysis.Marker.Data.Condition, 
TestParameter, AutoAnalysis.Marker.Data.Start, false
TestParameter, AutoAnalysis.Marker.Data.StartVar, 
TestParameter, AutoAnalysis.Marker.Data.StartCondition, 
MetaData, TestRecord.EntryPoint, true
MetaData, TestRecord.RecordTime, 04/29/2024 05:19:28
MetaData, TestRecord.TestTarget, 
MetaData, TestRecord.IterationIndex, 139
MetaData, TestRecord.Preservation, true
MetaData, TestRecord.Flag, 
MetaData, TestRecord.Remarks, 
MetaData, TestRecord.LinkKey, b935cfea-88a3-4c14-95d3-e6868028d2ef
MetaData, TestRecord.Parameters, 
Dimension1, 802, 802
Dimension2, 1, 1
DataName, V4, I3
DataValue, -3, 4.8123399999999995E-08
DataValue, -2.985, 3.9409199999999997E-08
DataValue, -2.97, 2.9204199999999996E-08
DataValue, -2.955, 2.8875599999999998E-08
DataValue, -2.94, 2.02506E-08
DataValue, -2.9250000000000003, 1.9645399999999997E-08
DataValue, -2.91, 1.8417599999999998E-08
DataValue, -2.895, 1.1964599999999998E-08
DataValue, -2.88, 1.4741999999999999E-08
DataValue, -2.865, 1.2506199999999999E-08
DataValue, -2.85, 1.1632799999999998E-08
DataValue, -2.835, 1.0605199999999999E-08
DataValue, -2.82, 8.625999999999999E-09
DataValue, -2.805, 8.2172E-09
DataValue, -2.79, 3.5155E-09
DataValue, -2.775, 6.0822E-09
DataValue, -2.7600000000000002, 3.0772E-09
DataValue, -2.745, 3.8175E-09
DataValue, -2.73, 3.3208E-09
DataValue, -2.715, 2.5041E-09
DataValue, -2.7, 2.9998E-09
DataValue, -2.685, 2.5422E-09
DataValue, -2.67, 1.505E-09
DataValue, -2.6550000000000002, 2.581E-09
DataValue, -2.64, -1.0845E-09
DataValue, -2.625, 3.4822E-09
DataValue, -2.61, -1.0929E-09
DataValue, -2.595, 3.2004E-09
DataValue, -2.58, -1.5043E-09
DataValue, -2.565, 2.4791E-09
DataValue, -2.5500000000000003, -1.8186E-09
DataValue, -2.535, 2.744E-09
DataValue, -2.52, -1.7678E-09
DataValue, -2.505, 2.3516E-09
DataValue, -2.49, -2.0901E-09
DataValue, -2.475, 2.2716E-09
DataValue, -2.46, -1.7367E-09
DataValue, -2.445, 2.0891E-09
DataValue, -2.43, -1.8983E-09
DataValue, -2.415, 1.8484E-09
DataValue, -2.4, -1.817E-09
DataValue, -2.3850000000000002, 2.0142E-09
DataValue, -2.37, -1.8689E-09
DataValue, -2.355, 2.0737E-09
DataValue, -2.34, -1.9192E-09
DataValue, -2.325, 2.1051E-09
DataValue, -2.31, -1.6535E-09
DataValue, -2.295, 1.7805E-09
DataValue, -2.2800000000000002, -1.921E-09
DataValue, -2.265, 2.0213E-09
DataValue, -2.25, -2.0208E-09
DataValue, -2.235, 2.5243E-09
DataValue, -2.22, -2.0326E-09
DataValue, -2.205, 1.9843E-09
DataValue, -2.19, -1.8754E-09
DataValue, -2.1750000000000003, 1.785E-09
DataValue, -2.16, -1.7351E-09
DataValue, -2.145, 1.7147E-09
DataValue, -2.13, -1.6569E-09
DataValue, -2.115, 2.1739E-09
DataValue, -2.1, -2.0379E-09
DataValue, -2.085, 2.0084E-09
DataValue, -2.07, -1.8848E-09
DataValue, -2.055, 1.8663E-09
DataValue, -2.04, -1.7282E-09
DataValue, -2.025, 1.7156E-09
DataValue, -2.0100000000000002, -1.9838E-09
DataValue, -1.995, 2.1756E-09
DataValue, -1.98, -1.9746E-09
DataValue, -1.965, 2.2689E-09
DataValue, -1.95, -1.5763E-09
DataValue, -1.935, 1.917E-09
DataValue, -1.92, -1.7351E-09
DataValue, -1.905, 2.4731E-09
DataValue, -1.8900000000000001, -1.7856E-09
DataValue, -1.875, 2.9186E-09
DataValue, -1.86, -1.5481E-09
DataValue, -1.845, 3.0078E-09
DataValue, -1.83, -1.404E-09
DataValue, -1.815, 3.5126E-09
DataValue, -1.8, -9.043E-10
DataValue, -1.7850000000000001, 3.8544E-09
DataValue, -1.77, 2.8372E-09
DataValue, -1.7550000000000001, 1.2694E-09
DataValue, -1.74, 3.2091E-09
DataValue, -1.725, 1.6051E-09
DataValue, -1.71, 3.1591E-09
DataValue, -1.695, 4.1655E-09
DataValue, -1.68, 1.9249E-09
DataValue, -1.665, 5.9428E-09
DataValue, -1.6500000000000001, 1.9552E-09
DataValue, -1.635, 6.332E-09
DataValue, -1.62, 3.3922E-09
DataValue, -1.605, 6.1367E-09
DataValue, -1.59, 7.2434E-09
DataValue, -1.575, 4.8864E-09
DataValue, -1.56, 1.0337E-08
DataValue, -1.545, 6.4538E-09
DataValue, -1.53, 1.00601E-08
DataValue, -1.5150000000000001, 1.1996999999999998E-08
DataValue, -1.5, 1.28504E-08
DataValue, -1.485, 9.1755999999999988E-09
DataValue, -1.47, 1.4838999999999998E-08
DataValue, -1.455, 1.2121799999999998E-08
DataValue, -1.44, 1.49822E-08
DataValue, -1.425, 1.6443199999999998E-08
DataValue, -1.41, 1.61872E-08
DataValue, -1.395, 2.1458199999999997E-08
DataValue, -1.3800000000000001, 1.8887399999999997E-08
DataValue, -1.365, 2.5134599999999998E-08
DataValue, -1.35, 2.32348E-08
DataValue, -1.335, 2.9879399999999994E-08
DataValue, -1.32, 3.27282E-08
DataValue, -1.305, 3.27074E-08
DataValue, -1.29, 3.81256E-08
DataValue, -1.2750000000000001, 3.9934E-08
DataValue, -1.26, 4.03348E-08
DataValue, -1.245, 4.65794E-08
DataValue, -1.23, 4.7458399999999996E-08
DataValue, -1.215, 5.5673999999999993E-08
DataValue, -1.2, 5.7449399999999996E-08
DataValue, -1.185, 6.2834999999999993E-08
DataValue, -1.17, 7.3111799999999989E-08
DataValue, -1.155, 7.186819999999999E-08
DataValue, -1.1400000000000001, 8.3837E-08
DataValue, -1.125, 8.9430199999999985E-08
DataValue, -1.11, 9.3246999999999988E-08
DataValue, -1.095, 1.043E-07
DataValue, -1.08, 1.2512E-07
DataValue, -1.065, 1.2666E-07
DataValue, -1.05, 1.3844E-07
DataValue, -1.035, 1.6078E-07
DataValue, -1.02, 1.5376E-07
DataValue, -1.0050000000000001, 1.8248E-07
DataValue, -0.99, 1.9868E-07
DataValue, -0.975, 1.9562E-07
DataValue, -0.96, 2.1988E-07
DataValue, -0.94500000000000006, 2.3238E-07
DataValue, -0.93, 2.394E-07
DataValue, -0.915, 2.5788E-07
DataValue, -0.9, 2.8968E-07
DataValue, -0.885, 3.0538E-07
DataValue, -0.87, 3.4587999999999997E-07
DataValue, -0.855, 3.5832E-07
DataValue, -0.84, 3.9436E-07
DataValue, -0.82500000000000007, 4.2134E-07
DataValue, -0.81, 4.5297999999999997E-07
DataValue, -0.795, 4.804E-07
DataValue, -0.78, 5.2242E-07
DataValue, -0.765, 5.6442E-07
DataValue, -0.75, 6.1634E-07
DataValue, -0.735, 6.7988E-07
DataValue, -0.72, 7.3618E-07
DataValue, -0.705, 7.7784E-07
DataValue, -0.69000000000000006, 8.5431999999999994E-07
DataValue, -0.675, 9.0277999999999994E-07
DataValue, -0.66, 9.656E-07
DataValue, -0.645, 1.02406E-06
DataValue, -0.63, 1.11654E-06
DataValue, -0.615, 1.1155000000000002E-06
DataValue, -0.6, 1.2271E-06
DataValue, -0.585, 1.337E-06
DataValue, -0.57000000000000006, 1.478E-06
DataValue, -0.555, 1.6417E-06
DataValue, -0.54, 1.7469000000000002E-06
DataValue, -0.525, 1.8923000000000003E-06
DataValue, -0.51, 2.0380000000000002E-06
DataValue, -0.495, 2.1013E-06
DataValue, -0.48, 2.3110000000000004E-06
DataValue, -0.465, 2.3593000000000004E-06
DataValue, -0.45, 2.5713000000000003E-06
DataValue, -0.435, 2.7807000000000003E-06
DataValue, -0.42, 3.0018E-06
DataValue, -0.405, 3.0831E-06
DataValue, -0.39, 3.3833000000000003E-06
DataValue, -0.375, 3.4950000000000004E-06
DataValue, -0.36, 3.8644000000000006E-06
DataValue, -0.34500000000000003, 4.1205000000000006E-06
DataValue, -0.33, 4.3763000000000008E-06
DataValue, -0.315, 4.638E-06
DataValue, -0.3, 4.8490000000000005E-06
DataValue, -0.28500000000000003, 5.0504000000000008E-06
DataValue, -0.27, 5.2726E-06
DataValue, -0.255, 5.4949000000000005E-06
DataValue, -0.24, 5.9300000000000008E-06
DataValue, -0.225, 6.2486000000000006E-06
DataValue, -0.21, 6.4638000000000007E-06
DataValue, -0.195, 6.6773000000000004E-06
DataValue, -0.18, 7.0533000000000007E-06
DataValue, -0.165, 7.4089E-06
DataValue, -0.15, 7.733300000000001E-06
DataValue, -0.135, 8.1539E-06
DataValue, -0.12, 8.3757E-06
DataValue, -0.105, 8.8929000000000009E-06
DataValue, -0.09, 9.4815E-06
DataValue, -0.075, 9.8694E-06
DataValue, -0.06, 1.0117000000000002E-05
DataValue, -0.045, 1.0711100000000002E-05
DataValue, -0.03, 1.036E-05
DataValue, -0.015, 1.0974E-05
DataValue, 0, 1.1424000000000001E-05
DataValue, 0.015, 1.2006E-05
DataValue, 0.03, 1.2774E-05
DataValue, 0.045, 1.3248000000000001E-05
DataValue, 0.06, 1.3818E-05
DataValue, 0.075, 1.4648000000000001E-05
DataValue, 0.09, 1.522E-05
DataValue, 0.105, 1.554E-05
DataValue, 0.12, 1.6002E-05
DataValue, 0.135, 1.6912E-05
DataValue, 0.15, 1.744E-05
DataValue, 0.165, 1.834E-05
DataValue, 0.18, 1.8694E-05
DataValue, 0.195, 1.9082E-05
DataValue, 0.21, 1.9964E-05
DataValue, 0.225, 2.0264E-05
DataValue, 0.24, 2.1302E-05
DataValue, 0.255, 2.2218E-05
DataValue, 0.27, 2.3136E-05
DataValue, 0.28500000000000003, 2.3808E-05
DataValue, 0.3, 2.417E-05
DataValue, 0.315, 2.487E-05
DataValue, 0.33, 2.5830000000000002E-05
DataValue, 0.34500000000000003, 2.665E-05
DataValue, 0.36, 2.6998E-05
DataValue, 0.375, 2.8178E-05
DataValue, 0.39, 2.8448E-05
DataValue, 0.405, 2.9436E-05
DataValue, 0.42, 3.0164E-05
DataValue, 0.435, 3.0930000000000004E-05
DataValue, 0.45, 3.134E-05
DataValue, 0.465, 3.2182E-05
DataValue, 0.48, 3.2866E-05
DataValue, 0.495, 3.3728E-05
DataValue, 0.51, 3.4818000000000004E-05
DataValue, 0.525, 3.5322E-05
DataValue, 0.54, 3.6102E-05
DataValue, 0.555, 3.7686000000000005E-05
DataValue, 0.57000000000000006, 3.7022E-05
DataValue, 0.585, 3.8168000000000005E-05
DataValue, 0.6, 3.8904E-05
DataValue, 0.615, 3.9044E-05
DataValue, 0.63, 4.0474E-05
DataValue, 0.645, 4.1114E-05
DataValue, 0.66, 4.1986E-05
DataValue, 0.675, 4.2712E-05
DataValue, 0.69000000000000006, 4.2906E-05
DataValue, 0.705, 4.4444000000000003E-05
DataValue, 0.72, 4.5238E-05
DataValue, 0.735, 4.6498E-05
DataValue, 0.75, 4.6528E-05
DataValue, 0.765, 4.7746E-05
DataValue, 0.78, 4.8394000000000005E-05
DataValue, 0.795, 5.0248000000000004E-05
DataValue, 0.81, 5.1500000000000005E-05
DataValue, 0.82500000000000007, 5.2374000000000004E-05
DataValue, 0.84, 5.3424E-05
DataValue, 0.855, 5.4298E-05
DataValue, 0.87, 5.4022E-05
DataValue, 0.885, 5.5066000000000004E-05
DataValue, 0.9, 5.5682E-05
DataValue, 0.915, 5.6504E-05
DataValue, 0.93, 5.8172000000000005E-05
DataValue, 0.94500000000000006, 5.9146E-05
DataValue, 0.96, 5.9042E-05
DataValue, 0.975, 6.0146E-05
DataValue, 0.99, 6.1382E-05
DataValue, 1.0050000000000001, 6.2334E-05
DataValue, 1.02, 6.2514E-05
DataValue, 1.035, 6.3766E-05
DataValue, 1.05, 6.4118E-05
DataValue, 1.065, 6.5878000000000009E-05
DataValue, 1.08, 6.6684E-05
DataValue, 1.095, 6.7436E-05
DataValue, 1.11, 6.7992000000000009E-05
DataValue, 1.125, 6.9332E-05
DataValue, 1.1400000000000001, 6.9942E-05
DataValue, 1.155, 7.1124E-05
DataValue, 1.17, 7.2404E-05
DataValue, 1.185, 7.3144E-05
DataValue, 1.2, 7.368E-05
DataValue, 1.215, 7.4154000000000009E-05
DataValue, 1.23, 7.5208E-05
DataValue, 1.245, 7.5758E-05
DataValue, 1.26, 7.6330000000000009E-05
DataValue, 1.2750000000000001, 7.787E-05
DataValue, 1.29, 7.7638E-05
DataValue, 1.305, 7.9694E-05
DataValue, 1.32, 8.0464000000000008E-05
DataValue, 1.335, 8.193600000000001E-05
DataValue, 1.35, 8.248E-05
DataValue, 1.365, 8.3820000000000007E-05
DataValue, 1.3800000000000001, 8.4292E-05
DataValue, 1.395, 8.4984E-05
DataValue, 1.41, 8.5994E-05
DataValue, 1.425, 8.6196E-05
DataValue, 1.44, 8.74E-05
DataValue, 1.455, 8.834E-05
DataValue, 1.47, 8.9478E-05
DataValue, 1.485, 8.9446E-05
DataValue, 1.5, 9.0164E-05
DataValue, 1.5150000000000001, 9.096000000000001E-05
DataValue, 1.53, 9.1806000000000008E-05
DataValue, 1.545, 9.1954000000000008E-05
DataValue, 1.56, 9.3530000000000007E-05
DataValue, 1.575, 9.3870000000000008E-05
DataValue, 1.59, 9.5062E-05
DataValue, 1.605, 9.6472000000000007E-05
DataValue, 1.62, 9.6826E-05
DataValue, 1.635, 9.7526E-05
DataValue, 1.6500000000000001, 9.7634000000000007E-05
DataValue, 1.665, 9.8706E-05
DataValue, 1.68, 9.9822000000000008E-05
DataValue, 1.695, 0.000100708
DataValue, 1.71, 0.00010175
DataValue, 1.725, 0.000102404
DataValue, 1.74, 0.000103708
DataValue, 1.7550000000000001, 0.000104126
DataValue, 1.77, 0.00010549000000000001
DataValue, 1.7850000000000001, 0.00010561
DataValue, 1.8, 0.00010644200000000001
DataValue, 1.815, 0.00010716600000000001
DataValue, 1.83, 0.00010749200000000001
DataValue, 1.845, 0.000108034
DataValue, 1.86, 0.00010844400000000001
DataValue, 1.875, 0.000109608
DataValue, 1.8900000000000001, 0.000110462
DataValue, 1.905, 0.00011133200000000001
DataValue, 1.92, 0.00011189400000000001
DataValue, 1.935, 0.000112318
DataValue, 1.95, 0.000112656
DataValue, 1.965, 0.00011334600000000001
DataValue, 1.98, 0.000114302
DataValue, 1.995, 0.00011190000000000001
DataValue, 2.0100000000000002, 0.00011264
DataValue, 2.025, 0.00011396000000000001
DataValue, 2.04, 0.00011532
DataValue, 2.055, 0.00011666000000000001
DataValue, 2.07, 0.0001161
DataValue, 2.085, 0.00011728
DataValue, 2.1, 0.00011766000000000001
DataValue, 2.115, 0.00011814
DataValue, 2.13, 0.00011998000000000001
DataValue, 2.145, 0.00012054000000000001
DataValue, 2.16, 0.00012178
DataValue, 2.1750000000000003, 0.00012282000000000002
DataValue, 2.19, 0.0001236
DataValue, 2.205, 0.00012342
DataValue, 2.22, 0.0001241
DataValue, 2.235, 0.00012588
DataValue, 2.25, 0.00012538
DataValue, 2.265, 0.00012660000000000001
DataValue, 2.2800000000000002, 0.00012738000000000002
DataValue, 2.295, 0.0001276
DataValue, 2.31, 0.0001281
DataValue, 2.325, 0.00012916000000000002
DataValue, 2.34, 0.0001298
DataValue, 2.355, 0.00013044
DataValue, 2.37, 0.00013108
DataValue, 2.3850000000000002, 0.00013222
DataValue, 2.4, 0.00013268
DataValue, 2.415, 0.00013308000000000002
DataValue, 2.43, 0.00013368
DataValue, 2.445, 0.00013496
DataValue, 2.46, 0.00013460000000000002
DataValue, 2.475, 0.00013586000000000002
DataValue, 2.49, 0.00013646
DataValue, 2.505, 0.00013626
DataValue, 2.52, 0.00013738000000000002
DataValue, 2.535, 0.00013768
DataValue, 2.5500000000000003, 0.00013856
DataValue, 2.565, 0.00013846
DataValue, 2.58, 0.00013874000000000002
DataValue, 2.595, 0.00013892
DataValue, 2.61, 0.00013910000000000002
DataValue, 2.625, 0.00014068000000000002
DataValue, 2.64, 0.00014046000000000002
DataValue, 2.6550000000000002, 0.00014126
DataValue, 2.67, 0.00014230000000000002
DataValue, 2.685, 0.00014208000000000002
DataValue, 2.7, 0.00014252
DataValue, 2.715, 0.00014324000000000002
DataValue, 2.73, 0.00014348
DataValue, 2.745, 0.00014364
DataValue, 2.7600000000000002, 0.00014404
DataValue, 2.775, 0.00014458
DataValue, 2.79, 0.00014484
DataValue, 2.805, 0.00014604
DataValue, 2.82, 0.0001462
DataValue, 2.835, 0.00014656
DataValue, 2.85, 0.00014672
DataValue, 2.865, 0.00014722000000000002
DataValue, 2.88, 0.00014758000000000002
DataValue, 2.895, 0.00014800000000000002
DataValue, 2.91, 0.0001484
DataValue, 2.9250000000000003, 0.00014926000000000002
DataValue, 2.94, 0.00014982
DataValue, 2.955, 0.0001508
DataValue, 2.97, 0.00015134
DataValue, 2.985, 0.0001516
DataValue, 3, 0.00015178000000000001
DataValue, 3, 0.000151
DataValue, 2.985, 0.00014876
DataValue, 2.97, 0.00014656
DataValue, 2.955, 0.00014534000000000002
DataValue, 2.94, 0.00014382000000000002
DataValue, 2.9250000000000003, 0.00014202
DataValue, 2.91, 0.00013938
