
SetupTitle, I/V Sweep
PrimitiveTest, I/V Sweep
TestParameter, Context.MainFrame, B1500A
TestParameter, Channel.UnitType, SMU, SMU, SMU
TestParameter, Channel.Unit, SMU2:HR, SMU3:HR, SMU4:HR
TestParameter, Channel.IName, I2, I3, I4
TestParameter, Channel.VName, V2, V3, V4
TestParameter, Channel.Mode, V, COMMON, V
TestParameter, Channel.Func, CONST, CONST, VAR1
TestParameter, Channel.Index, 
TestParameter, Channel.Time, 
TestParameter, Measurement.Port.Unit, SMU2:HR, SMU3:HR, SMU4:HR
TestParameter, Measurement.Port.SeriesResistor, NONE, NONE, NONE
TestParameter, Measurement.Port.Filter, ON, ON, ON
TestParameter, Measurement.Port.OutputVoltageComparison, 0, 0, 0
TestParameter, Measurement.Primary.Locus, Double
TestParameter, Measurement.Primary.Scale, LINEAR
TestParameter, Measurement.Primary.Start, -3
TestParameter, Measurement.Primary.Stop, 3
TestParameter, Measurement.Primary.Step, 0.015
TestParameter, Measurement.Primary.Compliance, 0.1
TestParameter, Measurement.Primary.PowerCompliance, 0
TestParameter, Measurement.Aborting.Condition, CONTINUE AT ANY
TestParameter, Measurement.PostOutput.Value, START
TestParameter, Measurement.PostOutput.Retention, OFF
TestParameter, Measurement.Bias.Source, -2, 0, -3
TestParameter, Measurement.Bias.Compliance, 0.1, 0.1, 0.1
TestParameter, Measurement.Monitor.Unit, SMU2:HR, SMU3:HR, SMU4:HR
TestParameter, Measurement.Monitor.Adc, HR ADC, HR ADC, HR ADC
TestParameter, Measurement.Monitor.Measurement, Compliance Side, Compliance Side, Compliance Side
TestParameter, Measurement.Monitor.RangingMode, LIMITED, LIMITED, LIMITED
TestParameter, Measurement.Monitor.RangeBoundary, 1nA, 1nA, 1nA
TestParameter, Measurement.Monitor.RangeRating, BY FULL RANGE, BY FULL RANGE, BY FULL RANGE
TestParameter, Measurement.Monitor.RangeRatingCoeff, 50, 50, 50
TestParameter, Measurement.Timing.Hold, 0
TestParameter, Measurement.Timing.Delay, 0.5
TestParameter, Measurement.Adc.HighSpeed.Mode, AUTO
TestParameter, Measurement.Adc.HighSpeed.Coeff, 1
TestParameter, Measurement.Adc.HighResolution.AutoZero, OFF
TestParameter, Measurement.Adc.HighResolution.Mode, AUTO
TestParameter, Measurement.Adc.HighResolution.Coeff, 6
TestParameter, Measurement.WaitTime.Source.Coeff, 1
TestParameter, Measurement.WaitTime.Source.Offset, 0
TestParameter, Measurement.WaitTime.Monitor.Coeff, 1
TestParameter, Measurement.WaitTime.Monitor.Offset, 0
TestParameter, Output.Graph.Enabled, true
TestParameter, Output.Graph.AutoScaling, false
TestParameter, Output.Graph.XAxis.Data, V4
TestParameter, Output.Graph.XAxis.Scale, Linear
TestParameter, Output.Graph.XAxis.Left, -3
TestParameter, Output.Graph.XAxis.Right, 3
TestParameter, Output.Graph.XAxis.RunTimeAutoScale, false
TestParameter, Output.Graph.YAxis.Data, I3
TestParameter, Output.Graph.YAxis.Scale, Log
TestParameter, Output.Graph.YAxis.Bottom, 0.001
TestParameter, Output.Graph.YAxis.Top, 0.01
TestParameter, Output.Graph.YAxis.Group, 
TestParameter, Output.Graph.YAxis.RunTimeAutoScale, true
TestParameter, AutoAnalysis.Interpolation, false
TestParameter, AutoAnalysis.Var2StepCount, 1
TestParameter, AutoAnalysis.Var2StepScript, 
TestParameter, AutoAnalysis.Line1.Enabled, false
TestParameter, AutoAnalysis.Line1.Type, 1
TestParameter, AutoAnalysis.Line1.Fix, True
TestParameter, AutoAnalysis.Line1.YAxis, 0
TestParameter, AutoAnalysis.Line1.Point1.Type, 0
TestParameter, AutoAnalysis.Line1.Point1.XY.X, 
TestParameter, AutoAnalysis.Line1.Point1.XY.Y, 
TestParameter, AutoAnalysis.Line1.Point1.Data.Var, 
TestParameter, AutoAnalysis.Line1.Point1.Data.Condition, 
TestParameter, AutoAnalysis.Line1.Point1.Data.Start, false
TestParameter, AutoAnalysis.Line1.Point1.Data.StartVar, 
TestParameter, AutoAnalysis.Line1.Point1.Data.StartCondition, 
TestParameter, AutoAnalysis.Line1.Point2.Type, 0
TestParameter, AutoAnalysis.Line1.Point2.XY.X, 
TestParameter, AutoAnalysis.Line1.Point2.XY.Y, 
TestParameter, AutoAnalysis.Line1.Point2.Data.Var, 
TestParameter, AutoAnalysis.Line1.Point2.Data.Condition, 
TestParameter, AutoAnalysis.Line1.Point2.Data.Start, false
TestParameter, AutoAnalysis.Line1.Point2.Data.StartVar, 
TestParameter, AutoAnalysis.Line1.Point2.Data.StartCondition, 
TestParameter, AutoAnalysis.Line1.GradientExpr, 0
TestParameter, AutoAnalysis.Line2.Enabled, false
TestParameter, AutoAnalysis.Line2.Type, 1
TestParameter, AutoAnalysis.Line2.Fix, True
TestParameter, AutoAnalysis.Line2.YAxis, 0
TestParameter, AutoAnalysis.Line2.Point1.Type, 0
TestParameter, AutoAnalysis.Line2.Point1.XY.X, 
TestParameter, AutoAnalysis.Line2.Point1.XY.Y, 
TestParameter, AutoAnalysis.Line2.Point1.Data.Var, 
TestParameter, AutoAnalysis.Line2.Point1.Data.Condition, 
TestParameter, AutoAnalysis.Line2.Point1.Data.Start, false
TestParameter, AutoAnalysis.Line2.Point1.Data.StartVar, 
TestParameter, AutoAnalysis.Line2.Point1.Data.StartCondition, 
TestParameter, AutoAnalysis.Line2.Point2.Type, 0
TestParameter, AutoAnalysis.Line2.Point2.XY.X, 
TestParameter, AutoAnalysis.Line2.Point2.XY.Y, 
TestParameter, AutoAnalysis.Line2.Point2.Data.Var, 
TestParameter, AutoAnalysis.Line2.Point2.Data.Condition, 
TestParameter, AutoAnalysis.Line2.Point2.Data.Start, false
TestParameter, AutoAnalysis.Line2.Point2.Data.StartVar, 
TestParameter, AutoAnalysis.Line2.Point2.Data.StartCondition, 
TestParameter, AutoAnalysis.Line2.GradientExpr, 0
TestParameter, AutoAnalysis.Marker.Enabled, false
TestParameter, AutoAnalysis.Marker.Data.Var, 
TestParameter, AutoAnalysis.Marker.Data.Condition, 
TestParameter, AutoAnalysis.Marker.Data.Start, false
TestParameter, AutoAnalysis.Marker.Data.StartVar, 
TestParameter, AutoAnalysis.Marker.Data.StartCondition, 
MetaData, TestRecord.EntryPoint, true
MetaData, TestRecord.RecordTime, 04/29/2024 05:11:34
MetaData, TestRecord.TestTarget, 
MetaData, TestRecord.IterationIndex, 138
MetaData, TestRecord.Preservation, true
MetaData, TestRecord.Flag, 
MetaData, TestRecord.Remarks, 
MetaData, TestRecord.LinkKey, 8e4eaf55-9cf0-4507-8146-84b66fcaab28
MetaData, TestRecord.Parameters, 
Dimension1, 802, 802
Dimension2, 1, 1
DataName, V4, I3
DataValue, -3, 1.1294399999999999E-08
DataValue, -2.985, 5.5074E-09
DataValue, -2.97, 5.6864E-09
DataValue, -2.955, 2.7689E-09
DataValue, -2.94, 4.4259E-09
DataValue, -2.9250000000000003, 2.6595999999999998E-09
DataValue, -2.91, 2.8205E-09
DataValue, -2.895, 2.5659E-09
DataValue, -2.88, 1.4169E-09
DataValue, -2.865, 1.9897E-09
DataValue, -2.85, 1.3954E-09
DataValue, -2.835, -9.302E-10
DataValue, -2.82, 3.1223E-09
DataValue, -2.805, -1.5167E-09
DataValue, -2.79, 2.2403E-09
DataValue, -2.775, -1.5672E-09
DataValue, -2.7600000000000002, 1.9449E-09
DataValue, -2.745, -1.8874E-09
DataValue, -2.73, 2.2278E-09
DataValue, -2.715, -1.8646E-09
DataValue, -2.7, 1.9684E-09
DataValue, -2.685, -1.8476E-09
DataValue, -2.67, 1.7062E-09
DataValue, -2.6550000000000002, -1.7105E-09
DataValue, -2.64, 2.1683E-09
DataValue, -2.625, -1.6798E-09
DataValue, -2.61, 2.0467E-09
DataValue, -2.595, -2.0462E-09
DataValue, -2.58, 1.828E-09
DataValue, -2.565, -1.9341E-09
DataValue, -2.5500000000000003, 1.6805E-09
DataValue, -2.535, -1.8865E-09
DataValue, -2.52, 2.1653E-09
DataValue, -2.505, -1.7992E-09
DataValue, -2.49, 2.053E-09
DataValue, -2.475, -1.7204E-09
DataValue, -2.46, 1.9708E-09
DataValue, -2.445, -2.0548E-09
DataValue, -2.43, 1.7528E-09
DataValue, -2.415, -1.9214E-09
DataValue, -2.4, 2.1838E-09
DataValue, -2.3850000000000002, -1.8647E-09
DataValue, -2.37, 2.1223E-09
DataValue, -2.355, -1.8033E-09
DataValue, -2.34, 2.0744E-09
DataValue, -2.325, -1.7307E-09
DataValue, -2.31, 1.9615E-09
DataValue, -2.295, -1.6493E-09
DataValue, -2.2800000000000002, 1.9221E-09
DataValue, -2.265, -2.0348E-09
DataValue, -2.25, 1.6757E-09
DataValue, -2.235, -1.8896999999999998E-09
DataValue, -2.22, 2.1724E-09
DataValue, -2.205, -1.8689E-09
DataValue, -2.19, 2.1263E-09
DataValue, -2.1750000000000003, -1.8112E-09
DataValue, -2.16, 2.0617E-09
DataValue, -2.145, -1.6978999999999999E-09
DataValue, -2.13, 2.0006E-09
DataValue, -2.115, -2.0233E-09
DataValue, -2.1, 1.8367E-09
DataValue, -2.085, -1.9087E-09
DataValue, -2.07, 1.6612E-09
DataValue, -2.055, -1.7444E-09
DataValue, -2.04, 2.2061E-09
DataValue, -2.025, -1.6407E-09
DataValue, -2.0100000000000002, 2.2371E-09
DataValue, -1.995, -1.8914E-09
DataValue, -1.98, 2.1534E-09
DataValue, -1.965, -1.6928E-09
DataValue, -1.95, 2.0602E-09
DataValue, -1.935, -1.7089E-09
DataValue, -1.92, 2.6138E-09
DataValue, -1.905, -1.4069E-09
DataValue, -1.8900000000000001, 2.6274E-09
DataValue, -1.875, -1.3359E-09
DataValue, -1.86, 3.1786E-09
DataValue, -1.845, -1.0609E-09
DataValue, -1.83, 3.6891E-09
DataValue, -1.815, 2.5113E-09
DataValue, -1.8, 1.8152E-09
DataValue, -1.7850000000000001, 2.8455E-09
DataValue, -1.77, 2.7909E-09
DataValue, -1.7550000000000001, 3.2759E-09
DataValue, -1.74, 4.213E-09
DataValue, -1.725, 1.5627E-09
DataValue, -1.71, 6.3289E-09
DataValue, -1.695, 2.1947E-09
DataValue, -1.68, 6.822E-09
DataValue, -1.665, 5.8128E-09
DataValue, -1.6500000000000001, 5.342E-09
DataValue, -1.635, 8.7207E-09
DataValue, -1.62, 5.3634E-09
DataValue, -1.605, 1.0905599999999998E-08
DataValue, -1.59, 1.28508E-08
DataValue, -1.575, 1.2621999999999999E-08
DataValue, -1.56, 9.2171999999999983E-09
DataValue, -1.545, 1.4836799999999998E-08
DataValue, -1.53, 1.1484599999999998E-08
DataValue, -1.5150000000000001, 1.6229199999999997E-08
DataValue, -1.5, 1.3474199999999998E-08
DataValue, -1.485, 1.83836E-08
DataValue, -1.47, 1.6756599999999997E-08
DataValue, -1.455, 1.76716E-08
DataValue, -1.44, 2.34724E-08
DataValue, -1.425, 2.1531E-08
DataValue, -1.41, 2.8790599999999998E-08
DataValue, -1.395, 2.44868E-08
DataValue, -1.3800000000000001, 2.9173799999999996E-08
DataValue, -1.365, 2.6386599999999998E-08
DataValue, -1.35, 3.32848E-08
DataValue, -1.335, 3.26446E-08
DataValue, -1.32, 3.56834E-08
DataValue, -1.305, 4.18568E-08
DataValue, -1.29, 4.8599199999999995E-08
DataValue, -1.2750000000000001, 5.6397199999999996E-08
DataValue, -1.26, 5.0000799999999995E-08
DataValue, -1.245, 5.7744799999999994E-08
DataValue, -1.23, 6.0902799999999989E-08
DataValue, -1.215, 6.93258E-08
DataValue, -1.2, 7.10614E-08
DataValue, -1.185, 8.4143999999999989E-08
DataValue, -1.17, 8.6257999999999991E-08
DataValue, -1.155, 9.0477999999999985E-08
DataValue, -1.1400000000000001, 9.4933E-08
DataValue, -1.125, 9.3436199999999988E-08
DataValue, -1.11, 1.1446E-07
DataValue, -1.095, 1.0934E-07
DataValue, -1.08, 1.1058E-07
DataValue, -1.065, 1.514E-07
DataValue, -1.05, 1.4844E-07
DataValue, -1.035, 1.7125999999999999E-07
DataValue, -1.02, 1.7774E-07
DataValue, -1.0050000000000001, 1.8186E-07
DataValue, -0.99, 2.213E-07
DataValue, -0.975, 2.0852E-07
DataValue, -0.96, 2.2092E-07
DataValue, -0.94500000000000006, 2.6256E-07
DataValue, -0.93, 2.7556E-07
DataValue, -0.915, 2.4816E-07
DataValue, -0.9, 3.3364E-07
DataValue, -0.885, 3.4802E-07
DataValue, -0.87, 3.9598E-07
DataValue, -0.855, 3.9992E-07
DataValue, -0.84, 3.9424E-07
DataValue, -0.82500000000000007, 4.4234E-07
DataValue, -0.81, 4.1053999999999997E-07
DataValue, -0.795, 4.771E-07
DataValue, -0.78, 4.9874E-07
DataValue, -0.765, 5.7737999999999995E-07
DataValue, -0.75, 5.4095999999999994E-07
DataValue, -0.735, 5.74E-07
DataValue, -0.72, 5.7094E-07
DataValue, -0.705, 6.7205999999999994E-07
DataValue, -0.69000000000000006, 6.3306E-07
DataValue, -0.675, 6.6676E-07
DataValue, -0.66, 6.79E-07
DataValue, -0.645, 7.0606E-07
DataValue, -0.63, 7.902E-07
DataValue, -0.615, 7.8282E-07
DataValue, -0.6, 8.3685999999999994E-07
DataValue, -0.585, 9.66E-07
DataValue, -0.57000000000000006, 9.235E-07
DataValue, -0.555, 1.01966E-06
DataValue, -0.54, 1.0045E-06
DataValue, -0.525, 1.1471000000000002E-06
DataValue, -0.51, 1.1397E-06
DataValue, -0.495, 1.3542E-06
DataValue, -0.48, 1.3562E-06
DataValue, -0.465, 1.5384000000000002E-06
DataValue, -0.45, 1.6041000000000002E-06
DataValue, -0.435, 1.6278000000000001E-06
DataValue, -0.42, 1.8154000000000002E-06
DataValue, -0.405, 1.7974000000000002E-06
DataValue, -0.39, 1.8416000000000003E-06
DataValue, -0.375, 1.5847000000000003E-06
DataValue, -0.36, 1.6792000000000002E-06
DataValue, -0.34500000000000003, 1.757E-06
DataValue, -0.33, 1.8097000000000002E-06
DataValue, -0.315, 1.8533000000000001E-06
DataValue, -0.3, 1.9571000000000003E-06
DataValue, -0.28500000000000003, 2.0624000000000004E-06
DataValue, -0.27, 2.2664E-06
DataValue, -0.255, 2.3488000000000003E-06
DataValue, -0.24, 2.3982E-06
DataValue, -0.225, 2.5874000000000004E-06
DataValue, -0.21, 2.5978000000000004E-06
DataValue, -0.195, 2.7211E-06
DataValue, -0.18, 2.7607E-06
DataValue, -0.165, 3.1242000000000005E-06
DataValue, -0.15, 3.2422000000000005E-06
DataValue, -0.135, 3.5737E-06
DataValue, -0.12, 3.7972000000000003E-06
DataValue, -0.105, 3.9407E-06
DataValue, -0.09, 4.0668000000000006E-06
DataValue, -0.075, 4.3467E-06
DataValue, -0.06, 4.2815000000000004E-06
DataValue, -0.045, 4.7586000000000005E-06
DataValue, -0.03, 4.9458E-06
DataValue, -0.015, 5.2181000000000009E-06
DataValue, 0, 5.2715E-06
DataValue, 0.015, 5.7707000000000005E-06
DataValue, 0.03, 5.9564E-06
DataValue, 0.045, 6.1950000000000008E-06
DataValue, 0.06, 6.5759000000000009E-06
DataValue, 0.075, 6.4976E-06
DataValue, 0.09, 6.9973000000000008E-06
DataValue, 0.105, 7.3247E-06
DataValue, 0.12, 7.469100000000001E-06
DataValue, 0.135, 7.8562000000000011E-06
DataValue, 0.15, 8.0862E-06
DataValue, 0.165, 8.3393000000000016E-06
DataValue, 0.18, 8.8452000000000013E-06
DataValue, 0.195, 9.748200000000001E-06
DataValue, 0.21, 9.3508E-06
DataValue, 0.225, 9.5073000000000013E-06
DataValue, 0.24, 9.9824000000000012E-06
DataValue, 0.255, 1.01366E-05
DataValue, 0.27, 1.0307900000000002E-05
DataValue, 0.28500000000000003, 1.0372500000000001E-05
DataValue, 0.3, 1.0816000000000001E-05
DataValue, 0.315, 1.1178E-05
DataValue, 0.33, 1.1868E-05
DataValue, 0.34500000000000003, 1.2724E-05
DataValue, 0.36, 1.287E-05
DataValue, 0.375, 1.3072000000000001E-05
DataValue, 0.39, 1.344E-05
DataValue, 0.405, 1.3828E-05
DataValue, 0.42, 1.4308000000000001E-05
DataValue, 0.435, 1.4802E-05
DataValue, 0.45, 1.5308E-05
DataValue, 0.465, 1.5296E-05
DataValue, 0.48, 1.595E-05
DataValue, 0.495, 1.6434000000000002E-05
DataValue, 0.51, 1.6986E-05
DataValue, 0.525, 1.718E-05
DataValue, 0.54, 1.8044000000000002E-05
DataValue, 0.555, 1.7742E-05
DataValue, 0.57000000000000006, 1.8822E-05
DataValue, 0.585, 1.9304E-05
DataValue, 0.6, 1.971E-05
DataValue, 0.615, 1.9902E-05
DataValue, 0.63, 2.012E-05
DataValue, 0.645, 2.1124E-05
DataValue, 0.66, 2.154E-05
DataValue, 0.675, 2.2102E-05
DataValue, 0.69000000000000006, 2.2142000000000002E-05
DataValue, 0.705, 2.286E-05
DataValue, 0.72, 2.3896E-05
DataValue, 0.735, 2.3656000000000002E-05
DataValue, 0.75, 2.4336000000000002E-05
DataValue, 0.765, 2.4544E-05
DataValue, 0.78, 2.5376000000000002E-05
DataValue, 0.795, 2.5826E-05
DataValue, 0.81, 2.6526E-05
DataValue, 0.82500000000000007, 2.682E-05
DataValue, 0.84, 2.7954E-05
DataValue, 0.855, 2.8328E-05
DataValue, 0.87, 2.9026E-05
DataValue, 0.885, 2.9516E-05
DataValue, 0.9, 2.9772000000000002E-05
DataValue, 0.915, 3.0668E-05
DataValue, 0.93, 3.0588E-05
DataValue, 0.94500000000000006, 3.1432E-05
DataValue, 0.96, 3.0838E-05
DataValue, 0.975, 3.1984000000000004E-05
DataValue, 0.99, 3.18E-05
DataValue, 1.0050000000000001, 3.197E-05
DataValue, 1.02, 3.2202E-05
DataValue, 1.035, 3.2448E-05
DataValue, 1.05, 3.3232E-05
DataValue, 1.065, 3.4302000000000005E-05
DataValue, 1.08, 3.4452E-05
DataValue, 1.095, 3.4476E-05
DataValue, 1.11, 3.6258000000000004E-05
DataValue, 1.125, 3.5888E-05
DataValue, 1.1400000000000001, 3.6208E-05
DataValue, 1.155, 3.6612E-05
DataValue, 1.17, 3.6954E-05
DataValue, 1.185, 3.8270000000000005E-05
DataValue, 1.2, 3.8202000000000005E-05
DataValue, 1.215, 3.8166E-05
DataValue, 1.23, 3.9346E-05
DataValue, 1.245, 3.9316E-05
DataValue, 1.26, 4.0306000000000003E-05
DataValue, 1.2750000000000001, 4.1002000000000005E-05
DataValue, 1.29, 4.108E-05
DataValue, 1.305, 4.266E-05
DataValue, 1.32, 4.181E-05
DataValue, 1.335, 4.2340000000000005E-05
DataValue, 1.35, 4.2968E-05
DataValue, 1.365, 4.4202E-05
DataValue, 1.3800000000000001, 4.4200000000000004E-05
DataValue, 1.395, 4.5336E-05
DataValue, 1.41, 4.5038000000000005E-05
DataValue, 1.425, 4.549E-05
DataValue, 1.44, 4.5966E-05
DataValue, 1.455, 4.7132E-05
DataValue, 1.47, 4.7828000000000004E-05
DataValue, 1.485, 4.8032000000000004E-05
DataValue, 1.5, 4.8186E-05
DataValue, 1.5150000000000001, 4.9122E-05
DataValue, 1.53, 4.8818E-05
DataValue, 1.545, 4.927E-05
DataValue, 1.56, 4.9992000000000005E-05
DataValue, 1.575, 5.0718000000000005E-05
DataValue, 1.59, 5.0616000000000005E-05
DataValue, 1.605, 5.0834E-05
DataValue, 1.62, 5.1506000000000005E-05
DataValue, 1.635, 5.3178000000000005E-05
DataValue, 1.6500000000000001, 5.2936E-05
DataValue, 1.665, 5.3546E-05
DataValue, 1.68, 5.4532E-05
DataValue, 1.695, 5.4536E-05
DataValue, 1.71, 5.516E-05
DataValue, 1.725, 5.5304000000000004E-05
DataValue, 1.74, 5.657E-05
DataValue, 1.7550000000000001, 5.538E-05
DataValue, 1.77, 5.6674E-05
DataValue, 1.7850000000000001, 5.643E-05
DataValue, 1.8, 5.6726000000000005E-05
DataValue, 1.815, 5.7818E-05
DataValue, 1.83, 5.8252000000000004E-05
DataValue, 1.845, 5.8026E-05
DataValue, 1.86, 5.7924E-05
DataValue, 1.875, 5.9318000000000004E-05
DataValue, 1.8900000000000001, 5.856E-05
DataValue, 1.905, 5.9538000000000005E-05
DataValue, 1.92, 6.0946E-05
DataValue, 1.935, 6.064E-05
DataValue, 1.95, 6.0224000000000005E-05
DataValue, 1.965, 6.2058000000000008E-05
DataValue, 1.98, 6.2104E-05
DataValue, 1.995, 6.32E-05
DataValue, 2.0100000000000002, 6.2962E-05
DataValue, 2.025, 6.389E-05
DataValue, 2.04, 6.3934E-05
DataValue, 2.055, 6.4668E-05
DataValue, 2.07, 6.5584E-05
DataValue, 2.085, 6.5502E-05
DataValue, 2.1, 6.593E-05
DataValue, 2.115, 6.6258E-05
DataValue, 2.13, 6.6296E-05
DataValue, 2.145, 6.6584E-05
DataValue, 2.16, 6.8112E-05
DataValue, 2.1750000000000003, 6.7708E-05
DataValue, 2.19, 6.8024E-05
DataValue, 2.205, 6.8012E-05
DataValue, 2.22, 6.906E-05
DataValue, 2.235, 6.9012E-05
DataValue, 2.25, 6.9128E-05
DataValue, 2.265, 6.9318E-05
DataValue, 2.2800000000000002, 7.003E-05
DataValue, 2.295, 7.004E-05
DataValue, 2.31, 7.0522E-05
DataValue, 2.325, 7.0472E-05
DataValue, 2.34, 7.0946000000000008E-05
DataValue, 2.355, 7.1142E-05
DataValue, 2.37, 7.0718E-05
DataValue, 2.3850000000000002, 7.1252E-05
DataValue, 2.4, 7.2174E-05
DataValue, 2.415, 7.3692E-05
DataValue, 2.43, 7.3354E-05
DataValue, 2.445, 7.3682E-05
DataValue, 2.46, 7.358E-05
DataValue, 2.475, 7.4164E-05
DataValue, 2.49, 7.4286E-05
DataValue, 2.505, 7.4278E-05
DataValue, 2.52, 7.4338E-05
DataValue, 2.535, 7.572E-05
DataValue, 2.5500000000000003, 7.6468E-05
DataValue, 2.565, 7.7196E-05
DataValue, 2.58, 7.5694E-05
DataValue, 2.595, 7.648E-05
DataValue, 2.61, 7.6544E-05
DataValue, 2.625, 7.6632000000000008E-05
DataValue, 2.64, 7.7392000000000007E-05
DataValue, 2.6550000000000002, 7.7408E-05
DataValue, 2.67, 7.7144E-05
DataValue, 2.685, 7.762800000000001E-05
DataValue, 2.7, 7.7946E-05
DataValue, 2.715, 7.8304E-05
DataValue, 2.73, 7.8484E-05
DataValue, 2.745, 7.8028E-05
DataValue, 2.7600000000000002, 7.94E-05
DataValue, 2.775, 7.9342E-05
DataValue, 2.79, 7.9636000000000008E-05
DataValue, 2.805, 8.0654E-05
DataValue, 2.82, 7.9464E-05
DataValue, 2.835, 8.0606000000000007E-05
DataValue, 2.85, 8.0766E-05
DataValue, 2.865, 8.1262000000000009E-05
DataValue, 2.88, 8.1106E-05
DataValue, 2.895, 8.1636E-05
DataValue, 2.91, 8.2462E-05
DataValue, 2.9250000000000003, 8.308E-05
DataValue, 2.94, 8.2898E-05
DataValue, 2.955, 8.2404E-05
DataValue, 2.97, 8.4080000000000008E-05
DataValue, 2.985, 8.5238E-05
DataValue, 3, 8.443E-05
DataValue, 3, 8.4886E-05
DataValue, 2.985, 8.2824E-05
DataValue, 2.97, 8.089E-05
DataValue, 2.955, 7.9654000000000007E-05
DataValue, 2.94, 7.9448E-05
DataValue, 2.9250000000000003, 7.7262E-05
DataValue, 2.91, 7.6228E-05
DataValue, 2.895, 7.5172E-05
DataValue, 2.88, 7.393E-05
DataValue, 2.865, 7.3116000000000009E-05
DataValue, 2.85, 7.3238E-05
DataValue, 2.835, 7.214E-05
DataValue, 2.82, 7.0668000000000008E-05
DataValue, 2.805, 7.098E-05
