
SetupTitle, I/V Sweep
PrimitiveTest, I/V Sweep
TestParameter, Context.MainFrame, B1500A
TestParameter, Channel.UnitType, SMU, SMU, SMU
TestParameter, Channel.Unit, SMU2:HR, SMU3:HR, SMU4:HR
TestParameter, Channel.IName, I2, I3, I4
TestParameter, Channel.VName, V2, V3, V4
TestParameter, Channel.Mode, V, COMMON, V
TestParameter, Channel.Func, CONST, CONST, VAR1
TestParameter, Channel.Index, 
TestParameter, Channel.Time, 
TestParameter, Measurement.Port.Unit, SMU2:HR, SMU3:HR, SMU4:HR
TestParameter, Measurement.Port.SeriesResistor, NONE, NONE, NONE
TestParameter, Measurement.Port.Filter, ON, ON, ON
TestParameter, Measurement.Port.OutputVoltageComparison, 0, 0, 0
TestParameter, Measurement.Primary.Locus, Double
TestParameter, Measurement.Primary.Scale, LINEAR
TestParameter, Measurement.Primary.Start, -3
TestParameter, Measurement.Primary.Stop, 3
TestParameter, Measurement.Primary.Step, 0.015
TestParameter, Measurement.Primary.Compliance, 0.1
TestParameter, Measurement.Primary.PowerCompliance, 0
TestParameter, Measurement.Aborting.Condition, CONTINUE AT ANY
TestParameter, Measurement.PostOutput.Value, START
TestParameter, Measurement.PostOutput.Retention, OFF
TestParameter, Measurement.Bias.Source, -2, 0, -3
TestParameter, Measurement.Bias.Compliance, 0.1, 0.1, 0.1
TestParameter, Measurement.Monitor.Unit, SMU2:HR, SMU3:HR, SMU4:HR
TestParameter, Measurement.Monitor.Adc, HR ADC, HR ADC, HR ADC
TestParameter, Measurement.Monitor.Measurement, Compliance Side, Compliance Side, Compliance Side
TestParameter, Measurement.Monitor.RangingMode, LIMITED, LIMITED, LIMITED
TestParameter, Measurement.Monitor.RangeBoundary, 1nA, 1nA, 1nA
TestParameter, Measurement.Monitor.RangeRating, BY FULL RANGE, BY FULL RANGE, BY FULL RANGE
TestParameter, Measurement.Monitor.RangeRatingCoeff, 50, 50, 50
TestParameter, Measurement.Timing.Hold, 0
TestParameter, Measurement.Timing.Delay, 1
TestParameter, Measurement.Adc.HighSpeed.Mode, AUTO
TestParameter, Measurement.Adc.HighSpeed.Coeff, 1
TestParameter, Measurement.Adc.HighResolution.AutoZero, OFF
TestParameter, Measurement.Adc.HighResolution.Mode, AUTO
TestParameter, Measurement.Adc.HighResolution.Coeff, 6
TestParameter, Measurement.WaitTime.Source.Coeff, 1
TestParameter, Measurement.WaitTime.Source.Offset, 0
TestParameter, Measurement.WaitTime.Monitor.Coeff, 1
TestParameter, Measurement.WaitTime.Monitor.Offset, 0
TestParameter, Output.Graph.Enabled, true
TestParameter, Output.Graph.AutoScaling, false
TestParameter, Output.Graph.XAxis.Data, V4
TestParameter, Output.Graph.XAxis.Scale, Linear
TestParameter, Output.Graph.XAxis.Left, -3
TestParameter, Output.Graph.XAxis.Right, 3
TestParameter, Output.Graph.XAxis.RunTimeAutoScale, false
TestParameter, Output.Graph.YAxis.Data, I3
TestParameter, Output.Graph.YAxis.Scale, Log
TestParameter, Output.Graph.YAxis.Bottom, 0.001
TestParameter, Output.Graph.YAxis.Top, 0.01
TestParameter, Output.Graph.YAxis.Group, 
TestParameter, Output.Graph.YAxis.RunTimeAutoScale, true
TestParameter, AutoAnalysis.Interpolation, false
TestParameter, AutoAnalysis.Var2StepCount, 1
TestParameter, AutoAnalysis.Var2StepScript, 
TestParameter, AutoAnalysis.Line1.Enabled, false
TestParameter, AutoAnalysis.Line1.Type, 1
TestParameter, AutoAnalysis.Line1.Fix, True
TestParameter, AutoAnalysis.Line1.YAxis, 0
TestParameter, AutoAnalysis.Line1.Point1.Type, 0
TestParameter, AutoAnalysis.Line1.Point1.XY.X, 
TestParameter, AutoAnalysis.Line1.Point1.XY.Y, 
TestParameter, AutoAnalysis.Line1.Point1.Data.Var, 
TestParameter, AutoAnalysis.Line1.Point1.Data.Condition, 
TestParameter, AutoAnalysis.Line1.Point1.Data.Start, false
TestParameter, AutoAnalysis.Line1.Point1.Data.StartVar, 
TestParameter, AutoAnalysis.Line1.Point1.Data.StartCondition, 
TestParameter, AutoAnalysis.Line1.Point2.Type, 0
TestParameter, AutoAnalysis.Line1.Point2.XY.X, 
TestParameter, AutoAnalysis.Line1.Point2.XY.Y, 
TestParameter, AutoAnalysis.Line1.Point2.Data.Var, 
TestParameter, AutoAnalysis.Line1.Point2.Data.Condition, 
TestParameter, AutoAnalysis.Line1.Point2.Data.Start, false
TestParameter, AutoAnalysis.Line1.Point2.Data.StartVar, 
TestParameter, AutoAnalysis.Line1.Point2.Data.StartCondition, 
TestParameter, AutoAnalysis.Line1.GradientExpr, 0
TestParameter, AutoAnalysis.Line2.Enabled, false
TestParameter, AutoAnalysis.Line2.Type, 1
TestParameter, AutoAnalysis.Line2.Fix, True
TestParameter, AutoAnalysis.Line2.YAxis, 0
TestParameter, AutoAnalysis.Line2.Point1.Type, 0
TestParameter, AutoAnalysis.Line2.Point1.XY.X, 
TestParameter, AutoAnalysis.Line2.Point1.XY.Y, 
TestParameter, AutoAnalysis.Line2.Point1.Data.Var, 
TestParameter, AutoAnalysis.Line2.Point1.Data.Condition, 
TestParameter, AutoAnalysis.Line2.Point1.Data.Start, false
TestParameter, AutoAnalysis.Line2.Point1.Data.StartVar, 
TestParameter, AutoAnalysis.Line2.Point1.Data.StartCondition, 
TestParameter, AutoAnalysis.Line2.Point2.Type, 0
TestParameter, AutoAnalysis.Line2.Point2.XY.X, 
TestParameter, AutoAnalysis.Line2.Point2.XY.Y, 
TestParameter, AutoAnalysis.Line2.Point2.Data.Var, 
TestParameter, AutoAnalysis.Line2.Point2.Data.Condition, 
TestParameter, AutoAnalysis.Line2.Point2.Data.Start, false
TestParameter, AutoAnalysis.Line2.Point2.Data.StartVar, 
TestParameter, AutoAnalysis.Line2.Point2.Data.StartCondition, 
TestParameter, AutoAnalysis.Line2.GradientExpr, 0
TestParameter, AutoAnalysis.Marker.Enabled, false
TestParameter, AutoAnalysis.Marker.Data.Var, 
TestParameter, AutoAnalysis.Marker.Data.Condition, 
TestParameter, AutoAnalysis.Marker.Data.Start, false
TestParameter, AutoAnalysis.Marker.Data.StartVar, 
TestParameter, AutoAnalysis.Marker.Data.StartCondition, 
MetaData, TestRecord.EntryPoint, true
MetaData, TestRecord.RecordTime, 04/29/2024 05:42:05
MetaData, TestRecord.TestTarget, 
MetaData, TestRecord.IterationIndex, 142
MetaData, TestRecord.Preservation, true
MetaData, TestRecord.Flag, 
MetaData, TestRecord.Remarks, 
MetaData, TestRecord.LinkKey, 6a84b094-24a4-4bba-82d2-cdceb80d8a9f
MetaData, TestRecord.Parameters, 
Dimension1, 802, 802
Dimension2, 1, 1
DataName, V4, I3
DataValue, -3, 7.0797999999999995E-09
DataValue, -2.985, 6.5027E-09
DataValue, -2.97, 2.0373E-09
DataValue, -2.955, 5.7641E-09
DataValue, -2.94, 6.953E-10
DataValue, -2.9250000000000003, 3.6736E-09
DataValue, -2.91, 9.033E-10
DataValue, -2.895, 2.6023E-09
DataValue, -2.88, 1.0917E-09
DataValue, -2.865, 2.1903E-09
DataValue, -2.85, 8.5E-10
DataValue, -2.835, -3.914E-10
DataValue, -2.82, 2.8813E-09
DataValue, -2.805, -1.7154E-09
DataValue, -2.79, 2.8333E-09
DataValue, -2.775, -1.6522E-09
DataValue, -2.7600000000000002, 2.2421E-09
DataValue, -2.745, -1.7955E-09
DataValue, -2.73, 2.1896E-09
DataValue, -2.715, -1.875E-09
DataValue, -2.7, 2.098E-09
DataValue, -2.685, -1.927E-09
DataValue, -2.67, 2.008E-09
DataValue, -2.6550000000000002, -1.9829E-09
DataValue, -2.64, 1.9402E-09
DataValue, -2.625, -2.0048E-09
DataValue, -2.61, 1.9209E-09
DataValue, -2.595, -1.8221E-09
DataValue, -2.58, 1.7016E-09
DataValue, -2.565, -1.9312E-09
DataValue, -2.5500000000000003, 1.7165E-09
DataValue, -2.535, -1.9871E-09
DataValue, -2.52, 1.7082E-09
DataValue, -2.505, -1.9435E-09
DataValue, -2.49, 1.7492E-09
DataValue, -2.475, -1.985E-09
DataValue, -2.46, 1.7327E-09
DataValue, -2.445, -2.0191E-09
DataValue, -2.43, 1.7366E-09
DataValue, -2.415, -1.9923E-09
DataValue, -2.4, 1.694E-09
DataValue, -2.3850000000000002, -1.9925E-09
DataValue, -2.37, 1.6629E-09
DataValue, -2.355, -1.9748E-09
DataValue, -2.34, 1.734E-09
DataValue, -2.325, -2.0133E-09
DataValue, -2.31, 1.6917E-09
DataValue, -2.295, -1.9893E-09
DataValue, -2.2800000000000002, 1.7423E-09
DataValue, -2.265, -2.0102E-09
DataValue, -2.25, 1.7667E-09
DataValue, -2.235, -2.0117E-09
DataValue, -2.22, 1.6679E-09
DataValue, -2.205, -1.927E-09
DataValue, -2.19, 2.1811E-09
DataValue, -2.1750000000000003, -1.9033E-09
DataValue, -2.16, 2.1625E-09
DataValue, -2.145, -1.8073E-09
DataValue, -2.13, 2.0751E-09
DataValue, -2.115, -1.7289E-09
DataValue, -2.1, 1.9835E-09
DataValue, -2.085, -2.0181E-09
DataValue, -2.07, 1.6504E-09
DataValue, -2.055, -2.235E-10
DataValue, -2.04, -1.2954E-09
DataValue, -2.025, 2.5794E-09
DataValue, -2.0100000000000002, -1.9567E-09
DataValue, -1.995, 1.7303E-09
DataValue, -1.98, -7.38E-11
DataValue, -1.965, -1.2919E-09
DataValue, -1.95, 2.7639E-09
DataValue, -1.935, -1.6494E-09
DataValue, -1.92, 1.7208E-09
DataValue, -1.905, 3.15E-10
DataValue, -1.8900000000000001, -1.2014E-09
DataValue, -1.875, 3.0324E-09
DataValue, -1.86, -1.7181E-09
DataValue, -1.845, 2.7449E-09
DataValue, -1.83, -1.4335E-09
DataValue, -1.815, 2.3918E-09
DataValue, -1.8, 4.926E-10
DataValue, -1.7850000000000001, 2.2756E-09
DataValue, -1.77, 1.4941E-09
DataValue, -1.7550000000000001, 2.7944E-09
DataValue, -1.74, 1.3033E-09
DataValue, -1.725, 2.717E-09
DataValue, -1.71, 2.1753E-09
DataValue, -1.695, 2.8166E-09
DataValue, -1.68, 3.3034E-09
DataValue, -1.665, 2.9349E-09
DataValue, -1.6500000000000001, 3.9735E-09
DataValue, -1.635, 2.9992E-09
DataValue, -1.62, 4.9754E-09
DataValue, -1.605, 1.427E-09
DataValue, -1.59, 6.2438E-09
DataValue, -1.575, 2.4269E-09
DataValue, -1.56, 6.6275E-09
DataValue, -1.545, 5.2800999999999996E-09
DataValue, -1.53, 5.6367E-09
DataValue, -1.5150000000000001, 8.9931E-09
DataValue, -1.5, 9.3359999999999984E-09
DataValue, -1.485, 1.14584E-08
DataValue, -1.47, 1.1361399999999998E-08
DataValue, -1.455, 1.2405E-08
DataValue, -1.44, 8.9662E-09
DataValue, -1.425, 1.6002999999999998E-08
DataValue, -1.41, 1.2762999999999998E-08
DataValue, -1.395, 1.4265999999999999E-08
DataValue, -1.3800000000000001, 1.84336E-08
DataValue, -1.365, 1.6614999999999997E-08
DataValue, -1.35, 2.0732999999999998E-08
DataValue, -1.335, 2.1377999999999998E-08
DataValue, -1.32, 2.0917399999999996E-08
DataValue, -1.305, 2.4026399999999998E-08
DataValue, -1.29, 2.53434E-08
DataValue, -1.2750000000000001, 3.4796199999999994E-08
DataValue, -1.26, 3.2107799999999995E-08
DataValue, -1.245, 3.57062E-08
DataValue, -1.23, 3.06732E-08
DataValue, -1.215, 3.7390399999999994E-08
DataValue, -1.2, 3.9817399999999994E-08
DataValue, -1.185, 4.3850199999999996E-08
DataValue, -1.17, 5.5131999999999994E-08
DataValue, -1.155, 5.4823599999999993E-08
DataValue, -1.1400000000000001, 5.1034799999999996E-08
DataValue, -1.125, 5.6618399999999993E-08
DataValue, -1.11, 6.4502999999999992E-08
DataValue, -1.095, 6.4557799999999991E-08
DataValue, -1.08, 6.8533199999999993E-08
DataValue, -1.065, 7.89964E-08
DataValue, -1.05, 7.01298E-08
DataValue, -1.035, 8.9176399999999986E-08
DataValue, -1.02, 9.49328E-08
DataValue, -1.0050000000000001, 1.0256E-07
DataValue, -0.99, 1.0536E-07
DataValue, -0.975, 1.1044E-07
DataValue, -0.96, 1.0952E-07
DataValue, -0.94500000000000006, 1.2629999999999999E-07
DataValue, -0.93, 1.4136E-07
DataValue, -0.915, 1.5686E-07
DataValue, -0.9, 1.3222E-07
DataValue, -0.885, 1.34E-07
DataValue, -0.87, 1.54E-07
DataValue, -0.855, 1.6112E-07
DataValue, -0.84, 1.6768E-07
DataValue, -0.82500000000000007, 1.8114E-07
DataValue, -0.81, 1.843E-07
DataValue, -0.795, 2.2716E-07
DataValue, -0.78, 2.5034E-07
DataValue, -0.765, 2.3456E-07
DataValue, -0.75, 2.3982E-07
DataValue, -0.735, 2.3984E-07
DataValue, -0.72, 2.6432E-07
DataValue, -0.705, 2.8314E-07
DataValue, -0.69000000000000006, 2.9188E-07
DataValue, -0.675, 3.5745999999999997E-07
DataValue, -0.66, 3.6606E-07
DataValue, -0.645, 3.7103999999999997E-07
DataValue, -0.63, 3.6844E-07
DataValue, -0.615, 3.9374E-07
DataValue, -0.6, 4.8366E-07
DataValue, -0.585, 5.166E-07
DataValue, -0.57000000000000006, 4.7778E-07
DataValue, -0.555, 4.8298E-07
DataValue, -0.54, 5.891E-07
DataValue, -0.525, 6.4902E-07
DataValue, -0.51, 6.0428E-07
DataValue, -0.495, 6.7559999999999994E-07
DataValue, -0.48, 7.2346E-07
DataValue, -0.465, 7.1862E-07
DataValue, -0.45, 7.3372E-07
DataValue, -0.435, 9.0576E-07
DataValue, -0.42, 8.704E-07
DataValue, -0.405, 9.572E-07
DataValue, -0.39, 1.0193E-06
DataValue, -0.375, 9.2402E-07
DataValue, -0.36, 1.066E-06
DataValue, -0.34500000000000003, 1.0883E-06
DataValue, -0.33, 1.1837000000000002E-06
DataValue, -0.315, 1.3269000000000002E-06
DataValue, -0.3, 1.2452000000000002E-06
DataValue, -0.28500000000000003, 1.3842000000000002E-06
DataValue, -0.27, 1.6231000000000002E-06
DataValue, -0.255, 1.6457000000000002E-06
DataValue, -0.24, 1.6825000000000002E-06
DataValue, -0.225, 1.9364000000000002E-06
DataValue, -0.21, 1.6696E-06
DataValue, -0.195, 2.0387E-06
DataValue, -0.18, 2.1537000000000002E-06
DataValue, -0.165, 2.3952000000000004E-06
DataValue, -0.15, 2.3318000000000003E-06
DataValue, -0.135, 2.3386000000000004E-06
DataValue, -0.12, 2.3308E-06
DataValue, -0.105, 2.6853000000000004E-06
DataValue, -0.09, 2.8128000000000004E-06
DataValue, -0.075, 3.3573000000000004E-06
DataValue, -0.06, 3.3986000000000004E-06
DataValue, -0.045, 3.6190000000000004E-06
DataValue, -0.03, 3.4215E-06
DataValue, -0.015, 3.4037000000000005E-06
DataValue, 0, 3.4036000000000003E-06
DataValue, 0.015, 4.0023000000000006E-06
DataValue, 0.03, 4.2374E-06
DataValue, 0.045, 4.4663000000000008E-06
DataValue, 0.06, 4.3023E-06
DataValue, 0.075, 4.6213E-06
DataValue, 0.09, 4.8914E-06
DataValue, 0.105, 4.8384E-06
DataValue, 0.12, 5.1874000000000005E-06
DataValue, 0.135, 5.7890000000000008E-06
DataValue, 0.15, 5.7917000000000008E-06
DataValue, 0.165, 5.9605000000000008E-06
DataValue, 0.18, 6.1465E-06
DataValue, 0.195, 6.899E-06
DataValue, 0.21, 7.0353000000000011E-06
DataValue, 0.225, 6.8365000000000005E-06
DataValue, 0.24, 7.3283000000000006E-06
DataValue, 0.255, 7.9209E-06
DataValue, 0.27, 7.9636000000000011E-06
DataValue, 0.28500000000000003, 7.9046E-06
DataValue, 0.3, 8.2145E-06
DataValue, 0.315, 9.0345000000000013E-06
DataValue, 0.33, 9.7438000000000015E-06
DataValue, 0.34500000000000003, 1.0418000000000001E-05
DataValue, 0.36, 1.075E-05
DataValue, 0.375, 1.048E-05
DataValue, 0.39, 1.11E-05
DataValue, 0.405, 1.1622E-05
DataValue, 0.42, 1.2244E-05
DataValue, 0.435, 1.1804E-05
DataValue, 0.45, 1.2504000000000001E-05
DataValue, 0.465, 1.274E-05
DataValue, 0.48, 1.258E-05
DataValue, 0.495, 1.2822E-05
DataValue, 0.51, 1.3172E-05
DataValue, 0.525, 1.4448000000000001E-05
DataValue, 0.54, 1.4422E-05
DataValue, 0.555, 1.4914E-05
DataValue, 0.57000000000000006, 1.4950000000000001E-05
DataValue, 0.585, 1.4774000000000001E-05
DataValue, 0.6, 1.5422E-05
DataValue, 0.615, 1.7076E-05
DataValue, 0.63, 1.7416E-05
DataValue, 0.645, 1.749E-05
DataValue, 0.66, 1.8314E-05
DataValue, 0.675, 1.8556E-05
DataValue, 0.69000000000000006, 1.9602E-05
DataValue, 0.705, 1.9482E-05
DataValue, 0.72, 2.0264E-05
DataValue, 0.735, 1.9264E-05
DataValue, 0.75, 1.9818000000000002E-05
DataValue, 0.765, 2.0658E-05
DataValue, 0.78, 2.0588E-05
DataValue, 0.795, 2.16E-05
DataValue, 0.81, 2.175E-05
DataValue, 0.82500000000000007, 2.1932E-05
DataValue, 0.84, 2.2182000000000002E-05
DataValue, 0.855, 2.3298E-05
DataValue, 0.87, 2.3542E-05
DataValue, 0.885, 2.315E-05
DataValue, 0.9, 2.3986E-05
DataValue, 0.915, 2.5640000000000002E-05
DataValue, 0.93, 2.5750000000000002E-05
DataValue, 0.94500000000000006, 2.5552000000000002E-05
DataValue, 0.96, 2.5750000000000002E-05
DataValue, 0.975, 2.6798E-05
DataValue, 0.99, 2.6726E-05
DataValue, 1.0050000000000001, 2.7262E-05
DataValue, 1.02, 2.8182000000000002E-05
DataValue, 1.035, 2.8056E-05
DataValue, 1.05, 2.8376E-05
DataValue, 1.065, 2.8970000000000002E-05
DataValue, 1.08, 2.9462E-05
DataValue, 1.095, 2.9480000000000002E-05
DataValue, 1.11, 3.0724E-05
DataValue, 1.125, 3.0032E-05
DataValue, 1.1400000000000001, 3.1524E-05
DataValue, 1.155, 3.2028E-05
DataValue, 1.17, 3.248E-05
DataValue, 1.185, 3.3134E-05
DataValue, 1.2, 3.312E-05
DataValue, 1.215, 3.3818E-05
DataValue, 1.23, 3.3926E-05
DataValue, 1.245, 3.4634E-05
DataValue, 1.26, 3.4374E-05
DataValue, 1.2750000000000001, 3.4794E-05
DataValue, 1.29, 3.5644E-05
DataValue, 1.305, 3.6918E-05
DataValue, 1.32, 3.7282E-05
DataValue, 1.335, 3.7578E-05
DataValue, 1.35, 3.716E-05
DataValue, 1.365, 3.772E-05
DataValue, 1.3800000000000001, 3.799E-05
DataValue, 1.395, 3.8148E-05
DataValue, 1.41, 3.8388E-05
DataValue, 1.425, 3.9840000000000005E-05
DataValue, 1.44, 4.0008E-05
DataValue, 1.455, 4.0096000000000004E-05
DataValue, 1.47, 4.0772E-05
DataValue, 1.485, 4.1258000000000004E-05
DataValue, 1.5, 4.168E-05
DataValue, 1.5150000000000001, 4.2552E-05
DataValue, 1.53, 4.3092E-05
DataValue, 1.545, 4.2802E-05
DataValue, 1.56, 4.3802E-05
DataValue, 1.575, 4.4382E-05
DataValue, 1.59, 4.4410000000000003E-05
DataValue, 1.605, 4.44E-05
DataValue, 1.62, 4.5706E-05
DataValue, 1.635, 4.4966E-05
DataValue, 1.6500000000000001, 4.593E-05
DataValue, 1.665, 4.6264E-05
DataValue, 1.68, 4.703E-05
DataValue, 1.695, 4.6376000000000005E-05
DataValue, 1.71, 4.7298E-05
DataValue, 1.725, 4.6492E-05
DataValue, 1.74, 4.7476000000000004E-05
DataValue, 1.7550000000000001, 4.8348E-05
DataValue, 1.77, 4.7566000000000005E-05
DataValue, 1.7850000000000001, 4.9120000000000004E-05
DataValue, 1.8, 4.8904000000000005E-05
DataValue, 1.815, 4.9336E-05
DataValue, 1.83, 5.0522E-05
DataValue, 1.845, 5.0198E-05
DataValue, 1.86, 5.198E-05
DataValue, 1.875, 5.149E-05
DataValue, 1.8900000000000001, 5.2802E-05
DataValue, 1.905, 5.36E-05
DataValue, 1.92, 5.3752E-05
DataValue, 1.935, 5.4384E-05
DataValue, 1.95, 5.4322E-05
DataValue, 1.965, 5.4768E-05
DataValue, 1.98, 5.4644E-05
DataValue, 1.995, 5.6194000000000004E-05
DataValue, 2.0100000000000002, 5.4760000000000004E-05
DataValue, 2.025, 5.566E-05
DataValue, 2.04, 5.6316E-05
DataValue, 2.055, 5.7832000000000005E-05
DataValue, 2.07, 5.6282E-05
DataValue, 2.085, 5.6552E-05
DataValue, 2.1, 5.7666E-05
DataValue, 2.115, 5.8278E-05
DataValue, 2.13, 5.8190000000000004E-05
DataValue, 2.145, 5.8320000000000004E-05
DataValue, 2.16, 5.9294000000000005E-05
DataValue, 2.1750000000000003, 5.9458E-05
DataValue, 2.19, 5.8934E-05
DataValue, 2.205, 5.9076E-05
DataValue, 2.22, 5.8438000000000005E-05
DataValue, 2.235, 5.9836E-05
DataValue, 2.25, 5.9642E-05
DataValue, 2.265, 6.0532E-05
DataValue, 2.2800000000000002, 6.2504E-05
DataValue, 2.295, 6.2756000000000007E-05
DataValue, 2.31, 6.169E-05
DataValue, 2.325, 6.2670000000000008E-05
DataValue, 2.34, 6.204E-05
DataValue, 2.355, 6.239E-05
DataValue, 2.37, 6.3412000000000009E-05
DataValue, 2.3850000000000002, 6.3594E-05
DataValue, 2.4, 6.43E-05
DataValue, 2.415, 6.4722000000000008E-05
DataValue, 2.43, 6.5526E-05
DataValue, 2.445, 6.4884E-05
DataValue, 2.46, 6.5552E-05
DataValue, 2.475, 6.6572E-05
DataValue, 2.49, 6.6708E-05
DataValue, 2.505, 6.6906E-05
DataValue, 2.52, 6.713E-05
DataValue, 2.535, 6.6744E-05
DataValue, 2.5500000000000003, 6.743E-05
DataValue, 2.565, 6.8248E-05
DataValue, 2.58, 6.8402E-05
DataValue, 2.595, 6.9486E-05
DataValue, 2.61, 6.896E-05
DataValue, 2.625, 6.885E-05
DataValue, 2.64, 6.8672E-05
DataValue, 2.6550000000000002, 7.0014E-05
DataValue, 2.67, 6.9030000000000008E-05
DataValue, 2.685, 6.9678E-05
DataValue, 2.7, 7.0210000000000007E-05
DataValue, 2.715, 7.0134E-05
DataValue, 2.73, 7.1452E-05
DataValue, 2.745, 7.1786000000000007E-05
DataValue, 2.7600000000000002, 7.1618E-05
DataValue, 2.775, 7.158E-05
DataValue, 2.79, 7.0496E-05
DataValue, 2.805, 7.1868E-05
DataValue, 2.82, 7.2132E-05
DataValue, 2.835, 7.3E-05
DataValue, 2.85, 7.2308E-05
DataValue, 2.865, 7.193E-05
DataValue, 2.88, 7.3144E-05
DataValue, 2.895, 7.409E-05
DataValue, 2.91, 7.3442E-05
DataValue, 2.9250000000000003, 7.3304E-05
DataValue, 2.94, 7.4034E-05
DataValue, 2.955, 7.4796000000000007E-05
DataValue, 2.97, 7.6360000000000008E-05
DataValue, 2.985, 7.5834E-05
DataValue, 3, 7.6778E-05
DataValue, 3, 7.65E-05
DataValue, 2.985, 7.3552E-05
DataValue, 2.97, 7.3066000000000008E-05
DataValue, 2.955, 7.1768000000000008E-05
DataValue, 2.94, 6.9066E-05
DataValue, 2.9250000000000003, 7.0148E-05
DataValue, 2.91, 6.8036E-05
DataValue, 2.895, 6.7228E-05
DataValue, 2.88, 6.6114E-05
DataValue, 2.865, 6.6158E-05
DataValue, 2.85, 6.509E-05
DataValue, 2.835, 6.4938000000000007E-05
DataValue, 2.82, 6.3356000000000008E-05
DataValue, 2.805, 6.3104E-05
DataValue, 2.79, 6.1108E-05
DataValue, 2.775, 6.1098E-05
DataValue, 2.7600000000000002, 6.1694E-05
